#Digilent WaveForms Network Analyzer - Bode
#Device Name: Discovery2NI
#Serial Number: SN:210321AD1509
#Date Time: 2021-11-19 18:53:49.600
#Start: 100 Hz
#Stop: 5e+06 Hz
#Steps: 1001
#Wavegen: Wavegen C1
#Amplification: 1 X
#Settle: 10 ms
#MinPeriods: 16 
#Channel: Channel 1
#Range: 5.49264 V
#Offset: 0.000293069 V
#Relative: no
#Channel: Channel 2
#Range: 5.52637 V
#Offset: 0.000302154 V
#Relative: yes
#Power Supplies: ON
#Positive Supply: ON
#Voltage: 5 V
#Negative Supply: ON
#Voltage: -5 V

#Frequency (Hz),Channel 1 Magnitude (dB),Channel 2 Magnitude (dB),Channel 2 Phase (deg)
100,-20.84940918449358,15.87859631061782,-0.006121809168287484
101.0878523765327,-20.84848883824628,15.87776352729128,-0.01323330657138975
102.1875389809967,-20.84787700264867,15.87683722161348,-0.007531074523083703
103.299188552322,-20.84861631537308,15.87756639753061,-0.01304593445245739
104.4229312299275,-20.84747752747437,15.87675413549604,-0.01339232531352712
105.5588985689574,-20.84981640226711,15.87845053828974,-0.01607454744583237
106.7072235556815,-20.84849014827497,15.87736901069719,-0.009869972865055842
107.8680406230641,-20.84794397812029,15.87673050244569,-0.0205496394805877
109.0414856665016,-20.85189845349898,15.88027340218333,-0.02086442443774121
110.2276960597312,-20.84832873873044,15.87729536143565,-0.01485704887401198
111.4268106709143,-20.84758979363912,15.87681157342625,-0.02198225248434404
112.6389698788924,-20.84832555811731,15.87724510940868,-0.01531251437479924
113.8643155896222,-20.84895736695852,15.87765558101679,-0.02379332589348025
115.1029912527866,-20.84920851461922,15.87814532019799,-0.02159218653640522
116.3551418785903,-20.8477907230837,15.87702462338711,-0.01451056233643016
117.6209140547345,-20.84767114882228,15.87659755531261,-0.02487495733953295
118.9004559635785,-20.84821299008102,15.87705710895706,-0.01989101857891633
120.1939173994868,-20.84890129680371,15.87780369468184,-0.01980216006142008
121.5014497863648,-20.84939749153162,15.87837803015246,-0.02097634010734808
122.8232061953875,-20.84972670527196,15.87854958006355,-0.02103260523557822
124.1593413629177,-20.84865827271483,15.87767909132791,-0.01365161040576837
125.5100117086216,-20.84924864417447,15.87842096597303,-0.02331014876472182
126.8753753537806,-20.84796863533599,15.87666712519621,-0.02436193023102327
128.2555921398015,-20.84866269587867,15.87774390109829,-0.03070747156516447
129.6508236469304,-20.84847568368007,15.87720845779472,-0.02600594162925773
131.0612332131678,-20.84903957360132,15.87794247794949,-0.01726867370431222
132.4869859533906,-20.84722491018325,15.87640154860328,-0.01045951196220543
133.9282487786811,-20.85072951632311,15.88014728929162,-0.03250596350358492
135.3851904158687,-20.84922053891365,15.87832997729316,-0.01114755122095765
136.8579814272811,-20.84902459023068,15.87818103074479,-0.01537304816760212
138.3467942307124,-20.84844596633803,15.87759166506651,-0.02297525220491465
139.8518031196084,-20.84839446736485,15.87762691260804,-0.01873402878943988
141.3731842834689,-20.84800257370582,15.87690583443885,-0.01037364812339803
142.9111158284766,-20.84976361953602,15.87878788898679,-0.01891018815257155
144.4657777983461,-20.84924180654495,15.87813280596872,-0.01965622211135951
146.0373521954019,-20.84916097206851,15.87861130104359,-0.01578525659480761
147.6260230018853,-20.84776336971562,15.87664234412552,-0.02556876593998485
149.2319762014921,-20.84909016257692,15.87859610921857,-0.03649463371060904
150.8553998011467,-20.84991240013166,15.87966163122508,-0.03477246604373434
152.4964838530115,-20.84811947082599,15.87734986068673,-0.01640501244599317
154.1554204767356,-20.84895565445672,15.87822120913069,-0.01202826967499959
155.8324038819458,-20.84828690994998,15.87733703463148,-0.03004978218187393
157.5276303909836,-20.84871980315997,15.87805845889666,-0.01321648734214378
159.2412984618876,-20.84771764257331,15.87708873458769,-0.04726057611063794
160.9736087116268,-20.84827295726067,15.87720204908597,-0.01928554186958422
162.724763939587,-20.84850004363081,15.87746070953761,-0.01594744332909093
164.4949691513111,-20.84801896982012,15.87670589468708,-0.02643084405497831
166.2844315825004,-20.84950005982065,15.87808436015873,-0.01769076787554731
168.0933607232746,-20.8476843244625,15.87642093219625,-0.0234738207545746
169.9219683426964,-20.8469871140856,15.87603195277779,-0.03227954840987337
171.7704685135639,-20.84844860344338,15.87719011431217,-0.02101713588301095
173.6390776374701,-20.84670014080522,15.87573763455585,-0.01892534739720162
175.5280144701389,-20.84720006508742,15.87587791759828,-0.03647764031034058
177.437500147033,-20.84919847344774,15.87806506051454,-0.01631101422700851
179.3677582092427,-20.84789048379597,15.87718056118222,-0.009673411075030457
181.3190146296558,-20.84697429340372,15.87591894960015,-0.02764496668446057
183.2914978394102,-20.84902718520449,15.87802776861346,-0.02921477827118437
185.2854387546386,-20.84751010692167,15.87643659782142,-0.02800466018757701
187.3010708035001,-20.84993538994973,15.8790945201108,-0.02966461591904164
189.3386299535072,-20.84771924223791,15.87633139549064,-0.02807097568812971
191.3983547391513,-20.84738092323684,15.87627723817704,-0.02268925418622985
193.4804862898253,-20.84845133189806,15.87725286962218,-0.03663484986442196
195.5852683580566,-20.84731493430764,15.87661680660693,-0.02092957592085441
197.7129473480376,-20.84841308306518,15.87738647436227,-0.02309782558220839
199.8637723444765,-20.84765294448202,15.87649001469546,-0.02549557543551906
202.0379951417535,-20.84924600545484,15.87856417264604,-0.0298449591795233
204.2358702734025,-20.84681274874049,15.87569955710721,-0.02711757973131519
206.457655041904,-20.8487862088248,15.87770494895849,-0.02867912148737446
208.703609548811,-20.84764425329066,15.87644310077092,-0.02525504301372123
210.9739967251974,-20.84667016425035,15.87556108563346,-0.03575536276429468
213.269082362439,-20.84742982786817,15.87639707770233,-0.03021972582125958
215.5891351433283,-20.8484973573962,15.87730035820413,-0.04058552282865265
217.9344266735313,-20.84947123027621,15.87822941613693,-0.03612336079952953
220.3052315133823,-20.84861099253107,15.87777031083148,-0.03242188217732504
222.7018272100265,-20.84874411370811,15.87768847471104,-0.02770539571363599
225.1244943299126,-20.8506080809393,15.87932322681761,-0.02443222570965418
227.5735164916382,-20.84975366335289,15.87855256685942,-0.02475692254358464
230.0491803991516,-20.84868646786129,15.87763642902789,-0.03160898670055219
232.5517758753178,-20.85045574623884,15.87878399810289,-0.02354133490278087
235.0815958958465,-20.84749109282241,15.87639883950933,-0.02139383442374481
237.6389366235905,-20.84445387968253,15.87294426255647,-0.03863142665577612
240.2240974432178,-20.84793339128493,15.87664788983638,-0.02871449714244858
242.8373809962582,-20.84708300194541,15.87594926432598,-0.0323325686704365
245.4790932165358,-20.84886181966316,15.87797745026277,-0.0383327943493974
248.1495433659828,-20.84740637515621,15.87605798023336,-0.03833323272878601
250.8490440708448,-20.84757906667566,15.87622077069474,-0.04053361154612398
253.5779113582796,-20.8493177156065,15.87812982232647,-0.03137299753410048
256.3364646933526,-20.84789808676428,15.87673559236747,-0.0331886683884135
259.1250270164392,-20.84897651801541,15.87756671633039,-0.03390672370098997
261.9439247810286,-20.84728341897807,15.87630652509104,-0.03091917994090423
264.7934879919427,-20.84789439468021,15.8763124669542,-0.02944220828267996
267.6740502439669,-20.84846734749292,15.87717569284674,-0.03760715969579422
270.5859487609073,-20.84938748938303,15.87786208619759,-0.03749550135831257
273.5295244350664,-20.84769894716074,15.87699437602483,-0.04309658727342836
276.505121867152,-20.8478327110352,15.876751409855,-0.04759533925512116
279.513089406619,-20.84646843289664,15.87560086309536,-0.02779973520172767
282.5537791924489,-20.84993231045189,15.87893783607276,-0.03125396731959604
285.627547194377,-20.84779244068567,15.87641266861556,-0.03690155353839088
288.7347532545631,-20.84921795784913,15.87830813246007,-0.02808680020799699
291.8757611297188,-20.84857010349854,15.87764839636132,-0.03667302580293352
295.050938533692,-20.84775344109294,15.87670859905433,-0.0468624126749182
298.2606571805129,-20.84699431047967,15.87596246451383,-0.04405128212868518
301.5052928279132,-20.85041509424395,15.8798795098705,-0.0463135309284695
304.7852253213136,-20.84844353742336,15.87741200927321,-0.03564811806562127
308.1008386382927,-20.84858131652802,15.87745750741248,-0.03157343778504827
311.4525209335367,-20.8491583664557,15.87822869090377,-0.04150063289238801
314.8406645842832,-20.84801914402097,15.8766850885271,-0.04389159143908072
318.2656662362547,-20.84943966684964,15.87860694250647,-0.04790709845473273
321.7279268500935,-20.84922704928039,15.87789126877112,-0.03834514160162387
325.2278517483023,-20.84732927974663,15.87618115919886,-0.04838638523288523
328.7658506626926,-20.84771046343899,15.87689312130409,-0.0526434857924535
332.3423377823547,-20.85005965188106,15.87843278465276,-0.04118411106276909
335.9577318021445,-20.8490428094763,15.87827728299051,-0.04749035683499301
339.6124559716995,-20.8541067505965,15.88263397275198,-0.04341769233245998
343.3069381449895,-20.8506721681152,15.87956770568501,-0.03736916257796601
347.0416108304015,-20.84942672430642,15.87803147293568,-0.03859619984320375
350.8169112413774,-20.84901530843439,15.87757270982998,-0.05317760411218728
354.6332813475954,-20.84820642907061,15.87694166375772,-0.03718196063496464
358.4911679267119,-20.84998949366094,15.87876379746495,-0.05805644808005352
362.3910226166626,-20.84961830416475,15.8783595652011,-0.05529065439537959
366.3333019685392,-20.85001636494624,15.8788323553859,-0.03545001293420569
370.3184675000347,-20.84769705381426,15.87650298969448,-0.03977296954199901
374.3469857494733,-20.8496404150289,15.87828416475245,-0.04846611576817992
378.4193283304284,-20.85056247456757,15.8794273596537,-0.06273209746680664
382.5359719869301,-20.84764747176331,15.87650439361685,-0.05902052016599271
386.6973986492825,-20.84887796650037,15.87811317608566,-0.05933640626439853
390.9040954904789,-20.84932736420689,15.87773338099096,-0.04749527138459655
395.1565549832358,-20.84934334057472,15.87787541615027,-0.05727363605094453
399.4552749576466,-20.84976109126736,15.87829224914944,-0.05724300278383065
403.8007586594587,-20.84831224194396,15.87689670833604,-0.05269309965455658
408.1935148089927,-20.84950545678776,15.87802298023414,-0.05817801630955444
412.6340576606948,-20.84682873262828,15.87585962119195,-0.05461741567877852
417.12290706334,-20.84542377855373,15.87413248130461,-0.05547063911997725
421.6605885208918,-20.84963374422624,15.87826520915979,-0.06166588277001921
426.2476332540182,-20.84802862353795,15.87721380485087,-0.0738330332521528
430.8845782622865,-20.84847776828051,15.87776850503192,-0.06449471898456167
435.5719663870258,-20.84672501063471,15.87572505374893,-0.06129221555315603
440.3103463748782,-20.84985025710024,15.87839044054903,-0.07002501050311594
445.1002729420368,-20.84885550850887,15.87755792260076,-0.06451992754883307
449.9423068391904,-20.8475969861286,15.87646579280675,-0.05533911656085877
454.8370149171666,-20.84849913967413,15.87732973525939,-0.06153503218400545
459.7849701932935,-20.84896262966879,15.8777422638355,-0.06514832662388485
464.7867519184824,-20.84931616557117,15.87833582446829,-0.05391453160245376
469.8429456450369,-20.85324497595732,15.88167751049043,-0.05261779149980583
474.9541432952078,-20.84951084870862,15.8784127248568,-0.0759627376795791
480.1209432304853,-20.84727433100043,15.87658595368671,-0.07080303060911745
485.3439503216495,-20.84765959556809,15.87657913191144,-0.0579152430344533
490.6237760195823,-20.84865452685702,15.87733551413299,-0.06746730177409858
495.9610384268459,-20.84598985857385,15.87515174501324,-0.07113132262593211
501.3563623700487,-20.8476904714198,15.87694441885971,-0.05066577657165716
506.8103794729898,-20.84913485215607,15.87842416838411,-0.07619084432470373
512.3237282306012,-20.84743523907467,15.87681296521896,-0.07120791575435703
517.8970540836988,-20.85073083969418,15.87969422395587,-0.06269278681915261
523.5310094945419,-20.84883649304138,15.87794330858929,-0.06618477622738191
529.226254023214,-20.84782772554728,15.87706145417672,-0.06544444733285068
534.9834544048412,-20.84715907841767,15.87632505920357,-0.07390571767324845
540.803284627641,-20.84902219036902,15.87773343857955,-0.08458833837310635
546.6864260118303,-20.848826507405,15.87781631136732,-0.06894083928831374
552.6335672893819,-20.84798085395044,15.8775213883291,-0.08451607777001353
558.6454046846569,-20.85072319053535,15.87943302659238,-0.07465053774290986
564.7226419959104,-20.84915125318327,15.87845376209668,-0.08936785521849729
570.8659906776813,-20.85000502306826,15.87946245989112,-0.07029615014076711
577.0761699240861,-20.84840578182478,15.87777366872232,-0.09517349833362679
583.3539067530093,-20.84736445316705,15.87644802624138,-0.08630607395630818
589.6999360912189,-20.85122928038373,15.87996045448149,-0.08973075707074826
596.1150008603992,-20.85132194142919,15.88044507722065,-0.08795520103747947
602.599852064127,-20.84717087323685,15.87602201517979,-0.09102096057732609
609.15524887579,-20.84878418794215,15.87798934333074,-0.08624256043150211
615.781958727459,-20.84718174137205,15.87662459842674,-0.0734148829503722
622.4807573997361,-20.8482691346132,15.87709852868823,-0.08270508659244183
629.2524291125679,-20.84660030734929,15.87615795355897,-0.08129075335275075
636.0977666170596,-20.84897232682381,15.87820933580869,-0.08269698447860066
643.0175712882741,-20.84896403445217,15.87784571607322,-0.09100389536498454
650.0126532190574,-20.8474285542059,15.87679866571755,-0.08155131919759669
657.0838313148641,-20.84746079800901,15.87693013241624,-0.08862475949049439
664.2319333896359,-20.84831269926656,15.87766353887358,-0.1044171961997314
671.4577962627043,-20.84629432875833,15.87551592258468,-0.08692776242039386
678.762265856763,-20.85284751230499,15.88199375161109,-0.09677936460812475
686.1461972968924,-20.84696383415764,15.87635665456627,-0.0943658766703365
693.6104550106769,-20.84799321450208,15.87659283591874,-0.09208314636603916
701.1559128293893,-20.84863203659754,15.87814396147613,-0.08888987559486168
708.783454090305,-20.84697233410447,15.87630394392843,-0.09839170422451851
716.4939717400963,-20.85022179992493,15.87931553028911,-0.09185925516685119
724.2883684393861,-20.84754810943446,15.8765701818481,-0.1028306555375764
732.1675566684032,-20.84976969383795,15.87888128133838,-0.09769665808461241
740.1324588338236,-20.85028136805632,15.87975680394318,-0.1014835212799653
748.1840073767366,-20.85047110304915,15.87935055372447,-0.09891348809924239
756.3231448818229,-20.84919177645176,15.87886246215156,-0.08914702488620696
764.5508241876868,-20.85434891817241,15.88307659799812,-0.09506893582120809
772.8680084984139,-20.8459356480504,15.87571830606396,-0.09737774085893136
781.2756714963242,-20.84954290915316,15.87857748174329,-0.104128712061555
789.7747974559707,-20.84977965692497,15.87928649784246,-0.0958317462383981
798.366381359351,-20.84766006689245,15.8766108130885,-0.1192007635915076
807.0514290124086,-20.84740778036402,15.87672136352808,-0.1066057924442923
815.8309571627606,-20.85303530840791,15.88197790880619,-0.1182549369096549
824.7059936187469,-20.84703158265122,15.87682924500973,-0.1215416134615303
833.6775773697354,-20.84737773303224,15.8772699676559,-0.1231127584098878
842.7467587077742,-20.85170414604287,15.88060280962684,-0.1227694175979352
851.9145993505283,-20.84597312482894,15.87611256767464,-0.1082931137091158
861.1821725655932,-20.8461520850862,15.87574187012915,-0.1204175211735702
870.550563296124,-20.8504658275218,15.88027387619815,-0.09855754110864154
880.0208682878608,-20.84732893199439,15.87711635659775,-0.1102806893493526
889.5941962175142,-20.84923315473489,15.87831788429202,-0.1266271628537807
899.2716678225644,-20.84973231724952,15.87975044765494,-0.1278393981539821
909.0544160324566,-20.84893335835572,15.87836681657739,-0.1262223868539179
918.9435861012424,-20.84944523557141,15.87863560140404,-0.1253026479146836
928.9403357416398,-20.84617587339277,15.87586180048245,-0.1409817933367662
939.0458352605772,-20.85246522379033,15.88142088337236,-0.113768765107335
949.2612676961909,-20.8486331326,15.87843435600116,-0.1296112691803124
959.5878289563295,-20.84751079820455,15.87720444086906,-0.1367607901446611
970.0267279585497,-20.85083005491072,15.88106889687107,-0.130947706235591
980.5791867716493,-20.85151766042047,15.88053870623056,-0.1335633683182074
991.2464407587311,-20.84719689043348,15.87665037405992,-0.1267178267670136
1002.029738721821,-20.85011150865608,15.88011268656355,-0.1380941542107365
1012.930343048072,-20.84747089106217,15.87729171715031,-0.1347278503530163
1023.949529857541,-20.84865718673453,15.87831049691126,-0.1326425944404457
1035.088589152593,-20.85273491431084,15.88266705000647,-0.1427288978936957
1046.348824968909,-20.85106900307459,15.88081047823875,-0.1454116571674702
1057.731555528155,-20.84895365079529,15.87894188077847,-0.146925044375681
1069.238113392306,-20.84834619894623,15.87840732266205,-0.134241052089174
1080.869845619638,-20.84798417047075,15.87833341896853,-0.1541769459171988
1092.628113922437,-20.84819606456055,15.87842220283718,-0.164342406746254
1104.514294826407,-20.84544476950832,15.87592140737121,-0.1480555205676829
1116.529779831821,-20.8476838794747,15.87755932156238,-0.167935698404218
1128.675975576417,-20.84901586434013,15.87950098590315,-0.1317123221810789
1140.954304000079,-20.85014591463995,15.88021035439431,-0.1754138598412916
1153.366202511297,-20.84855206076018,15.87865879144151,-0.1342236038469494
1165.913124155442,-20.85066801382082,15.88076463256249,-0.1697324958895052
1178.596537784875,-20.85021048678318,15.88036796163422,-0.1638439417961305
1191.4179282309,-20.85115427598946,15.88145783143691,-0.1626590072577997
1204.378796477597,-20.84917754536957,15.88015338539454,-0.1430414165203523
1217.480659837536,-20.84910737020106,15.8792307463046,-0.1709453172279222
1230.725052129405,-20.84707043793044,15.8774560843304,-0.1551497533250057
1244.113523857579,-20.84751129031793,15.87825679381049,-0.1814361216051196
1257.647642393629,-20.84590529515196,15.87615949848461,-0.1781943653458526
1271.328992159817,-20.84903982577669,15.87934341628026,-0.1777053901424273
1285.159174814577,-20.84828673164247,15.87798808876188,-0.1684599845696923
1299.139809440026,-20.84881823001567,15.87886418122974,-0.1867470835993707
1313.272532731503,-20.84844125639979,15.8784532385947,-0.1672503818952123
1327.558999189174,-20.84557443014082,15.8770303558179,-0.1947811955443837
1342.000881311729,-20.85029822786087,15.8808384719253,-0.1902597115893165
1356.599869792169,-20.85339981633142,15.88359566712719,-0.1945030030046844
1371.357673715744,-20.84670039904028,15.87747799636814,-0.1814462942598908
1386.276020760024,-20.85035878744105,15.88033879288786,-0.1867825773170492
1401.356657397165,-20.84596791600083,15.87721842254283,-0.1957028013835043
1416.601349098361,-20.84950411514436,15.88012219957292,-0.1915072789800114
1432.011880540522,-20.85126857864629,15.88180887628345,-0.1892268892440683
1447.590055815215,-20.85002153168448,15.8798072582893,-0.1822068826208499
1463.337698639852,-20.84684678233013,15.87766259432051,-0.2016044773352014
1479.256652571206,-20.84915809298743,15.88080305717189,-0.2081013418240555
1495.348781221221,-20.84601620884165,15.87738577708445,-0.1881219164205241
1511.615968475189,-20.84485323644951,15.8762909824817,-0.1846457089646037
1528.060118712296,-20.85499976918125,15.88499435465803,-0.2003917917490927
