#Digilent WaveForms Network Analyzer - Bode
#Device Name: Discovery2NI
#Serial Number: SN:210321ABE135
#Date Time: 2021-11-09 15:59:20.197
#Start: 100 Hz
#Stop: 5e+06 Hz
#Steps: 1001
#Wavegen: Wavegen C1
#Amplification: 1 X
#Settle: 10 ms
#MinPeriods: 16 
#Channel: Channel 1
#Range: 5.51199 V
#Offset: 0.000299138 V
#Relative: no
#Channel: Channel 2
#Range: 5.52909 V
#Offset: 6.9788e-05 V
#Relative: yes
#Power Supplies: ON
#Positive Supply: ON
#Voltage: 5 V
#Negative Supply: ON
#Voltage: -5 V

Frequency (Hz),Channel 1 Magnitude (dB),Channel 2 Magnitude (dB),Channel 2 Phase (deg)
100,-20.80501055767493,20.18032195130416,-0.08036149123728364
101.0878523765327,-20.80458217187144,20.17558565871715,-0.09012022762568961
102.1875389809967,-20.81346441896285,20.1662910592361,-0.04478280629044207
103.299188552322,-20.80847609792977,20.18239430055776,-0.0280582854780107
104.4229312299275,-20.81383624857621,20.16823746509855,0.01192460674505469
105.5588985689574,-20.81313408980292,20.16579104532223,-0.01912071982479802
106.7072235556815,-20.8153387042605,20.16843358863229,-0.008764540372879992
107.8680406230641,-20.81064328459465,20.17363550550025,0.0033970811373365
109.0414856665016,-20.80745387655152,20.17350434659647,-0.08882015450046765
110.2276960597312,-20.81177344781821,20.17914261181966,-0.009332932999498667
111.4268106709143,-20.81384035185991,20.17241644485437,-0.007112075489033032
112.6389698788924,-20.81384702885181,20.17353458761484,-0.01269305196414905
113.8643155896222,-20.80867722544447,20.17709381847681,-0.02045928972748357
115.1029912527866,-20.80967901690516,20.17020495067358,-0.05400699781253593
116.3551418785903,-20.80744086832947,20.17735535118714,-0.02772994200365986
117.6209140547345,-20.81061149495685,20.17135836460807,-0.0342603696630448
118.9004559635785,-20.81201852124577,20.17284607886114,-0.04058004513851188
120.1939173994868,-20.81082363225254,20.1729929264507,-0.04010165384649866
121.5014497863648,-20.80818006867208,20.17374912525888,-0.03824142067138325
122.8232061953875,-20.80933454244876,20.17427338658202,-0.04422946441127706
124.1593413629177,-20.80956376027003,20.1736130429509,-0.02481357205537904
125.5100117086216,-20.8095876275419,20.17311600191506,-0.05135041361947401
126.8753753537806,-20.80856360275818,20.17251027448044,-0.04766665204396503
128.2555921398015,-20.80959660261966,20.1733216379915,-0.03829462045139209
129.6508236469304,-20.81004581805777,20.17431603495038,-0.0412115519329177
131.0612332131678,-20.81079550132528,20.17475869046234,-0.03531906874445667
132.4869859533906,-20.81051924310739,20.17422471165062,-0.04728168730882487
133.9282487786811,-20.80919355314288,20.1728548239959,-0.05488742453550799
135.3851904158687,-20.80921267697011,20.17347972854983,-0.04176288768957193
136.8579814272811,-20.80990528017726,20.17395665093908,-0.0517762247418716
138.3467942307124,-20.81083408830888,20.17419259678162,-0.04335942546752847
139.8518031196084,-20.81083623556209,20.17537645271515,-0.04674301799416725
141.3731842834689,-20.81034711857642,20.17376711538886,-0.03879895578941728
142.9111158284766,-20.80915175749352,20.17278606361897,-0.05510418837224051
144.4657777983461,-20.81079094797849,20.1745931958808,-0.04534749800898652
146.0373521954019,-20.81063357430165,20.17527124003191,-0.05100540061752667
147.6260230018853,-20.80925286028251,20.17297732482731,-0.04542284437832222
149.2319762014921,-20.80922000339068,20.17276095957296,-0.05023165444066535
150.8553998011467,-20.80871664330887,20.17230369054008,-0.05679003207856681
152.4964838530115,-20.81003104815399,20.17370233951655,-0.05567520849621577
154.1554204767356,-20.80809922472416,20.17272742304698,-0.06995825604430905
155.8324038819458,-20.80882696989063,20.17274926540804,-0.04519958442953964
157.5276303909836,-20.81061919960649,20.17411325988574,-0.05608235345758317
159.2412984618876,-20.8103508775675,20.17395461417352,-0.05936920441038751
160.9736087116268,-20.80993261796483,20.17405092984093,-0.05344241019665219
162.724763939587,-20.81010411311425,20.17486535287627,-0.06157459205320137
164.4949691513111,-20.8111095914726,20.17517075031171,-0.0474176972723086
166.2844315825004,-20.80993446883227,20.17336314987372,-0.04396764635968964
168.0933607232746,-20.81026657461455,20.17347901313821,-0.04701395891865445
169.9219683426964,-20.80855127705995,20.17313649129381,-0.06402745724685133
171.7704685135639,-20.80843266414832,20.17391807674254,-0.07048404255711205
173.6390776374701,-20.80738807206589,20.17427401290779,-0.06916994534197585
175.5280144701389,-20.80879396630401,20.17532407316148,-0.07136808616363055
177.437500147033,-20.81043578858966,20.17272981971833,-0.07486746033148961
179.3677582092427,-20.8091319547396,20.17703308905917,-0.08964579636162373
181.3190146296558,-20.80723202435518,20.17529500179732,-0.06671859994668239
183.2914978394102,-20.80775241208484,20.1771638925101,-0.06801942843831199
185.2854387546386,-20.80783918224133,20.17679532967203,-0.09226409728088925
187.3010708035001,-20.80934801127825,20.16740978082894,-0.04495092294752823
189.3386299535072,-20.81084557617148,20.16728992009771,-0.1171760243019548
191.3983547391513,-20.80931864296126,20.16529135535248,-0.1875595697781023
193.4804862898253,-20.81132588273248,20.15125299085185,-0.1046159682127268
195.5852683580566,-20.80748767571557,20.20541005090841,0.04335090263101549
197.7129473480376,-20.80975333400312,20.13460616724509,0.04157457005218035
199.8637723444765,-20.81186420011437,20.13351039296627,-0.184045422637098
202.0379951417535,-20.8123503289477,20.13419181007969,-0.02045145956290639
204.2358702734025,-20.80791095520699,20.19438837715996,0.1550485257788594
206.457655041904,-20.80926981378385,20.14544413700612,-0.282316635615004
208.703609548811,-20.80960112447981,20.20608583943532,-0.2591738499867589
210.9739967251974,-20.80825655633145,20.18184828615558,-0.09312426316941469
213.269082362439,-20.81076048917816,20.17377596504797,-0.1301633359897636
215.5891351433283,-20.81002131779643,20.16960790979002,-0.02646730926365137
217.9344266735313,-20.81228645903676,20.17058812114632,-0.1203298213312536
220.3052315133823,-20.80822862331528,20.17265728270532,-0.1177960683419172
222.7018272100265,-20.81076036026226,20.16810593659853,-0.1035285023015859
225.1244943299126,-20.8085380434058,20.17241143481314,-0.04040977247061051
227.5735164916382,-20.80951028299064,20.17959915161956,-0.06860959928815191
230.0491803991516,-20.8094641576244,20.17262359736982,-0.06021248503527943
232.5517758753178,-20.80905241729233,20.17080343557318,-0.08746217745246554
235.0815958958465,-20.8090694385492,20.168358467955,-0.06920535162052488
237.6389366235905,-20.80959309003783,20.17052868250361,-0.05886053446563722
240.2240974432178,-20.81019129798232,20.17368568407415,-0.1020032680592777
242.8373809962582,-20.80992425839738,20.17509407935505,-0.0639125185530105
245.4790932165358,-20.80941416621776,20.17503713406989,-0.0886349229148351
248.1495433659828,-20.80913034709607,20.17512313148688,-0.08963225394678176
250.8490440708448,-20.80931900409906,20.17438846278638,-0.09828390703012602
253.5779113582796,-20.80876827524732,20.17387327190413,-0.09239234821464493
256.3364646933526,-20.8091397067427,20.17254544769033,-0.07685240602302201
259.1250270164392,-20.80986074236712,20.17428581884318,-0.08828843652366913
261.9439247810286,-20.80862539227334,20.1729597223175,-0.103149170316847
264.7934879919427,-20.81022869167181,20.17329757302516,-0.1029162309933795
267.6740502439669,-20.8096372875824,20.17278324544189,-0.07694598442463985
270.5859487609073,-20.80992191400335,20.17542108130592,-0.1077278834457616
273.5295244350664,-20.81001323911585,20.17687438962426,-0.1007933364606828
276.505121867152,-20.80915825280205,20.17602461774205,-0.07827113129494023
279.513089406619,-20.81022359148178,20.17503784230825,-0.1036323158066637
282.5537791924489,-20.80869465182275,20.17172772771469,-0.08439567895110756
285.627547194377,-20.8096690558931,20.17380219293079,-0.09802209579260435
288.7347532545631,-20.80852388851168,20.17053722443694,-0.09821210018571236
291.8757611297188,-20.80925243883165,20.17039145998207,-0.1032260543965577
295.050938533692,-20.80970270038599,20.17647698803106,-0.1029801053136339
298.2606571805129,-20.80952599756949,20.17508040221662,-0.08475270277568825
301.5052928279132,-20.80799763946561,20.17421522575162,-0.1064540320847254
304.7852253213136,-20.81028119497527,20.17562656341837,-0.0932494387745777
308.1008386382927,-20.81024256602079,20.1735149266578,-0.1097713602986232
311.4525209335367,-20.81132279050121,20.17481191302409,-0.1104945065873153
314.8406645842832,-20.80784311827477,20.17380669120517,-0.1241479009802262
318.2656662362547,-20.80961839084549,20.17311454883556,-0.123494042867037
321.7279268500935,-20.81004243224438,20.1745518605061,-0.08679007185835985
325.2278517483023,-20.80991602567343,20.17465653124235,-0.1189177170036686
328.7658506626926,-20.8116188576745,20.17489309563641,-0.1499748697515031
332.3423377823547,-20.81131135601763,20.17562086447923,-0.1309474178712833
335.9577318021445,-20.80929694667544,20.17550879935942,-0.09552669901199806
339.6124559716995,-20.81224708156302,20.17785642650054,-0.1345097106655402
343.3069381449895,-20.80940115385765,20.17112570116679,-0.1347958878463515
347.0416108304015,-20.8075285597822,20.17356438843693,-0.1212753511134324
350.8169112413774,-20.80772030738263,20.17448178231987,-0.1199148834558414
354.6332813475954,-20.80753824718109,20.17322740132784,-0.1284672898275403
358.4911679267119,-20.81293330842562,20.17880435380868,-0.118653153606985
362.3910226166626,-20.80910942449774,20.17293828114812,-0.1504320227330282
366.3333019685392,-20.80925889792162,20.17385024967871,-0.1267345454243127
370.3184675000347,-20.81194034556785,20.17264726145597,-0.1393935940032094
374.3469857494733,-20.8080799197081,20.17432310502761,-0.1319125056315045
378.4193283304284,-20.81159725011558,20.17874210992773,-0.1185618131309716
382.5359719869301,-20.81028474547204,20.17357634833594,-0.1052326802020076
386.6973986492825,-20.81078779321013,20.17660637859361,-0.12169157415582
390.9040954904789,-20.81053280162283,20.17819202331486,-0.1579395499077805
395.1565549832358,-20.80959231270449,20.17201743837027,-0.1088810396080362
399.4552749576466,-20.80800942746632,20.1667346219613,-0.1415618244484307
403.8007586594587,-20.81126906481198,20.17327702715502,-0.1276765679763194
408.1935148089927,-20.81314442931415,20.17966645100026,-0.1485392791626552
412.6340576606948,-20.80857553213052,20.17136508866783,-0.1194788795460227
417.12290706334,-20.80966517570867,20.17006906737726,-0.1358304810721691
421.6605885208918,-20.81227374076096,20.17546598974148,-0.1143748017414765
426.2476332540182,-20.80907562548276,20.17539369133443,-0.1680833274261033
430.8845782622865,-20.81126477654175,20.17635179134821,-0.1202283559773036
435.5719663870258,-20.80728298279895,20.17331530683433,-0.1138864055398869
440.3103463748782,-20.80832481246085,20.17615971344799,-0.1648665250679358
445.1002729420368,-20.80732535539605,20.16837053677775,-0.1346265478202326
449.9423068391904,-20.8105958388602,20.16913020363583,-0.1695468704467942
454.8370149171666,-20.81211171318663,20.17108500091371,-0.1355257656191782
459.7849701932935,-20.80967846133822,20.17909121989547,-0.1589317898711471
464.7867519184824,-20.80849952143517,20.17332403896908,-0.135052676643447
469.8429456450369,-20.81099134276508,20.1765585800638,-0.1472117152621237
474.9541432952078,-20.80785287218841,20.17205883338963,-0.1528957642955682
480.1209432304853,-20.80988224826276,20.17469829986273,-0.1696464504387158
485.3439503216495,-20.80668508950222,20.17324451167009,-0.2048100012607854
490.6237760195823,-20.80941835743736,20.16758463706283,-0.1717523656324857
495.9610384268459,-20.80790554732574,20.1778992553337,-0.1735546954140302
501.3563623700487,-20.8070559445143,20.17273151559814,-0.1656734865518388
506.8103794729898,-20.80979581047528,20.17587148173527,-0.1885212909944585
512.3237282306012,-20.80745534068812,20.17181904039684,-0.1828866271678322
517.8970540836988,-20.80913655085915,20.16928235027393,-0.1907766521387515
523.5310094945419,-20.8124211761315,20.17522196922464,-0.1674983484232371
529.226254023214,-20.81138958116171,20.17766700957592,-0.1629858070845813
534.9834544048412,-20.8094408854525,20.17326292884177,-0.1876860269624956
540.803284627641,-20.80844150946317,20.17142302396177,-0.2019521125314618
546.6864260118303,-20.80995030820896,20.1736005260956,-0.2051386039110241
552.6335672893819,-20.80973563155908,20.17814209745186,-0.2137060126553934
558.6454046846569,-20.81017975026182,20.17428050826631,-0.185660834651884
564.7226419959104,-20.80966605341153,20.17707757032827,-0.1994710136987123
570.8659906776813,-20.80869765171437,20.17319232622334,-0.2013995762478373
577.0761699240861,-20.81185346749172,20.17497215961408,-0.1949352292580784
583.3539067530093,-20.80953071742322,20.17382145507138,-0.19049851459744
589.6999360912189,-20.81300896104922,20.17720749617837,-0.21221370256157
596.1150008603992,-20.81160602497504,20.17415354740017,-0.1934181767735055
602.599852064127,-20.80798700713291,20.17198614019482,-0.2004874703490032
609.15524887579,-20.8130718113185,20.17500713917259,-0.2129086339044477
615.781958727459,-20.80895681463313,20.17387461209785,-0.2149439916012454
622.4807573997361,-20.80792269347425,20.17316450322909,-0.2148687799966922
629.2524291125679,-20.80924954165521,20.17309598567051,-0.2391903169668055
636.0977666170596,-20.80886920844805,20.17492112282836,-0.2315857363756493
643.0175712882741,-20.81103606800636,20.17554276928171,-0.2053741509672307
650.0126532190574,-20.80997544406051,20.17339722734751,-0.2303156616236777
657.0838313148641,-20.80835885313085,20.17229222791489,-0.2360012130510967
664.2319333896359,-20.80740876818734,20.16832995113037,-0.2656832118545802
671.4577962627043,-20.81064229669193,20.17491718652626,-0.2245191501469455
678.762265856763,-20.80863084373589,20.17456112573637,-0.2407883100560184
686.1461972968924,-20.81208693454009,20.17458117082084,-0.2523227802279724
693.6104550106769,-20.81110531601467,20.17677836246027,-0.2425375001353203
701.1559128293893,-20.8095715627979,20.17427818801961,-0.2343772108998152
708.783454090305,-20.80816560086467,20.17394985109472,-0.2272857546144849
716.4939717400963,-20.80794557443025,20.17051915571369,-0.2455839991034452
724.2883684393861,-20.81094086200214,20.17332970073668,-0.2460625001627461
732.1675566684032,-20.80835109945772,20.17164410267515,-0.2506470510392731
740.1324588338236,-20.81120370855293,20.17515387654004,-0.2545017266026548
748.1840073767366,-20.80797822088733,20.17392561209883,-0.2423364129353871
756.3231448818229,-20.80811659181796,20.17346460183154,-0.2696699255479018
764.5508241876868,-20.81733019461709,20.17902445778923,-0.2775806366003764
772.8680084984139,-20.80970489597948,20.17517172123808,-0.2557988480007483
781.2756714963242,-20.80787533656126,20.17310508004323,-0.2596133212121572
789.7747974559707,-20.80907098287389,20.17172170514662,-0.2582787987461757
798.366381359351,-20.80968838684219,20.17454894427989,-0.2849310405889298
807.0514290124086,-20.81075636807255,20.17392125939824,-0.2762645834017405
815.8309571627606,-20.812150413784,20.1750371279604,-0.2819289405721292
824.7059936187469,-20.80821189905039,20.17214059415133,-0.2884103633513586
833.6775773697354,-20.80941880852568,20.17386748898934,-0.294938305137137
842.7467587077742,-20.80839841535221,20.17183075166784,-0.3014988960322285
851.9145993505283,-20.80981763864051,20.17310440630789,-0.2838684010237955
861.1821725655932,-20.80923794592738,20.17467153659359,-0.3087416147881257
870.550563296124,-20.81122944311571,20.17449555935344,-0.2935630823867825
880.0208682878608,-20.81018492726466,20.1736677778162,-0.2974973440568567
889.5941962175142,-20.80886990983753,20.17288458341452,-0.3060621540120678
899.2716678225644,-20.80843077655316,20.17175492734348,-0.3108614691554124
909.0544160324566,-20.81032613335477,20.17423621196869,-0.316944665178454
918.9435861012424,-20.81041529907741,20.17430384388966,-0.3197335884740369
928.9403357416398,-20.81085912198446,20.1749549908612,-0.3111743517268906
939.0458352605772,-20.81208012467134,20.17503175093319,-0.3050505152138072
949.2612676961909,-20.81049392918819,20.17504036836853,-0.3337249408398719
959.5878289563295,-20.81087264779698,20.17432795005252,-0.3429708842741945
970.0267279585497,-20.80902709850922,20.1728816694248,-0.3481268925956442
980.5791867716493,-20.81202690043018,20.17563158300995,-0.3404042168640444
991.2464407587311,-20.80906391815991,20.17210274119709,-0.3348210945864878
1002.029738721821,-20.80979526005533,20.17397965528431,-0.3643210041867135
1012.930343048072,-20.80630117197707,20.17008893199403,-0.349400182394934
1023.949529857541,-20.81218098518399,20.17491262544023,-0.3592358673326999
1035.088589152593,-20.80842950438119,20.17149472856378,-0.3650915952004645
1046.348824968909,-20.81177360053199,20.17593325873278,-0.3767186290011324
1057.731555528155,-20.81300873908496,20.1764825351732,-0.3574428200600153
1069.238113392306,-20.80977236398196,20.17388669126363,-0.3539381125834637
1080.869845619638,-20.8101199809865,20.17322052099107,-0.3722992028973948
1092.628113922437,-20.8102796041106,20.17320529362933,-0.380493128328169
1104.514294826407,-20.80967338514843,20.17445332765121,-0.3596831523312005
1116.529779831821,-20.80933366090558,20.17352641099361,-0.3651125244521722
1128.675975576417,-20.80918088191643,20.17232550802101,-0.3829869066870515
1140.954304000079,-20.80948100881862,20.17348680903259,-0.3859313036358287
1153.366202511297,-20.80863782481732,20.17226049988167,-0.3846127467957672
1165.913124155442,-20.80739718607417,20.172095500088,-0.417021095341056
1178.596537784875,-20.8092162449324,20.17293661798744,-0.4288368401226705
1191.4179282309,-20.81064769181577,20.17324082561451,-0.4315230451156253
1204.378796477597,-20.80795968090238,20.17162350511002,-0.4014288526439032
1217.480659837536,-20.8078069331503,20.17202626231847,-0.4210193595422425
1230.725052129405,-20.80802825184344,20.17170096679456,-0.4365624094095146
1244.113523857579,-20.80826845202111,20.17085464284461,-0.4160934770507367
1257.647642393629,-20.80997672637536,20.17339259029863,-0.4249114299133652
1271.328992159817,-20.80930832788947,20.17330431514359,-0.4261660656637503
1285.159174814577,-20.80923016642027,20.17331885171021,-0.4243975391121921
1299.139809440026,-20.81058344537466,20.17177947196914,-0.4535735857296856
1313.272532731503,-20.80920851544793,20.17331854909857,-0.4411275474823206
1327.558999189174,-20.8104747303508,20.17286637461945,-0.4735290312261782
1342.000881311729,-20.8105903931942,20.17486232322721,-0.4700345028244612
1356.599869792169,-20.80974508661455,20.17425648035201,-0.4978628505998302
1371.357673715744,-20.807091783789,20.17236373963078,-0.4724619529162482
1386.276020760024,-20.80742146964781,20.16971912145828,-0.485539021431606
1401.356657397165,-20.80863678732941,20.17340049105417,-0.4798231833512432
1416.601349098361,-20.81002950256442,20.17296655611283,-0.4981724661847515
1432.011880540522,-20.80871369054266,20.17180424996246,-0.4878478189408781
1447.590055815215,-20.81239901911098,20.17602475863832,-0.4878438056695131
1463.337698639852,-20.80954648234236,20.16880768402672,-0.5079954099514765
1479.256652571206,-20.81206461901157,20.17647355983119,-0.506989502448647
1495.348781221221,-20.80936434135408,20.17298725813531,-0.508871967322122
1511.615968475189,-20.80937437226444,20.17766434448991,-0.5392503367168473
1528.060118712296,-20.81583570153528,20.17719582940311,-0.5412044933666227
1544.683157028556,-20.80947300863207,20.17251458739047,-0.5113506826546939
1561.487029462194,-20.80735104551295,20.17241952469689,-0.5377368660095101
1578.473703221448,-20.80796871928246,20.17246454788733,-0.5361860255245006
1595.645166914888,-20.80737557491624,20.17152249675476,-0.5485033174415292
1613.003430784202,-20.80973073660619,20.17322612643187,-0.5485865942584525
1630.550526939542,-20.81577704965689,20.17770898442754,-0.5846116030422053
