#Digilent WaveForms Network Analyzer - Bode
#Device Name: Discovery2NI
#Serial Number: SN:210321ABE135
#Date Time: 2021-11-17 17:11:14.671
#Start: 100 Hz
#Stop: 5e+06 Hz
#Steps: 5001
#Wavegen: Wavegen C1
#Amplification: 1 X
#Settle: 10 ms
#MinPeriods: 16 
#Channel: Channel 1
#Range: 5.51199 V
#Offset: 0.000299138 V
#Relative: no
#Channel: Channel 2
#Range: 5.52909 V
#Offset: 6.9788e-05 V
#Relative: yes
#Power Supplies: ON
#Positive Supply: ON
#Voltage: 5 V
#Negative Supply: ON
#Voltage: -5 V

Frequency (Hz),Channel 1 Magnitude (dB),Channel 2 Magnitude (dB),Channel 2 Phase (deg)
100,0.02147155664244411,-10.00776181266941,-91.54459718055385
100.21662986987,0.01891391840644501,-9.963531681377196,-91.68756436527984
100.433729024745,0.01270008931772728,-9.971757437252515,-92.06422700388534
100.6512984812369,0.02013300903052347,-9.969663109743776,-91.69351818221057
100.8693392581593,0.01659521323654249,-9.954031469861492,-91.91951647068969
101.0878523765327,0.01640727582968221,-9.923384864263403,-91.81999641456363
101.3068388595904,0.0149277888256762,-9.904515432843494,-91.87797617678248
101.5262997327811,0.01635109304866625,-9.89416341729669,-91.89018060275131
101.7462360237761,0.01678036449975595,-9.869285999590851,-91.8061555108626
101.966648762472,0.01621183985715136,-9.854158846857144,-91.91671979158745
102.1875389809967,0.01683452315665128,-9.827347985451688,-91.89562263587329
102.4089077137146,0.01707436523521736,-9.8112405199552,-91.87896066512356
102.6307559972299,0.01666001008273415,-9.796717893207269,-91.87318661160036
102.8530848703935,0.0178212931843763,-9.773921572284928,-91.86035183009969
103.0758953743053,0.01554201188410318,-9.756145710121123,-91.94536908848241
103.299188552322,0.0169823174086121,-9.732417413907065,-91.86716263317486
103.5229654500595,0.01696001136117679,-9.721619506221215,-91.88459354442682
103.7472271153995,0.01625236912408155,-9.701157364934646,-91.91398469492083
103.9719745984933,0.01610292760451577,-9.685266153391069,-91.91606684753887
104.1972089517671,0.01795511098153372,-9.666129359354125,-91.85398749012722
104.4229312299275,0.01513924825294646,-9.645513088374551,-91.99197552188245
104.6491424899651,0.01718239232830776,-9.618252105107803,-91.9030857931352
104.8758437911612,0.01827622957071532,-9.602834882598403,-91.90783857463137
105.103036195091,0.01675676104104697,-9.58892895108953,-91.92020259109569
105.3307207656298,0.01909508126376491,-9.566249913694827,-91.86265153008218
105.5588985689574,0.01401765101516675,-9.549962962230564,-92.05955481270249
105.7875706735635,0.01921479409358614,-9.518007095254934,-91.81027817762221
106.0167381502521,0.02074549244077515,-9.532468986901577,-91.7840741477098
106.2464020721474,0.01945683224695442,-9.527938735423165,-91.84095352651316
106.4765635146978,0.02159677883892723,-9.477923000332058,-91.73117003739451
106.7072235556815,0.01472809019507777,-9.43240880338678,-92.0550594802655
106.9383832752121,0.01837184944630744,-9.464642403141653,-91.88035197584436
107.170043755742,0.01507856339992948,-9.428846103541543,-92.05015672897702
107.4022060820697,0.01565252780148121,-9.393188220110682,-92.04104907912685
107.6348713413428,0.01723828453933821,-9.379822742716215,-91.98113847750598
107.8680406230641,0.0176644484401769,-9.365152071219541,-91.96782667869475
108.1017150190971,0.0171553768412975,-9.340217740809981,-91.97400915793796
108.3358956236703,0.01555091328321746,-9.333867145755219,-92.02674864533546
108.5705835333823,0.01723977863630693,-9.301213065653824,-92.01112707832172
108.8057798472076,0.01890515306117583,-9.288509501682924,-91.96930803456226
109.0414856665016,0.01515408771319879,-9.274810246578241,-92.01478670818047
109.277702095005,0.01702386945600626,-9.254742047680157,-91.99924017760335
109.5144302388504,0.01726004885323817,-9.230505304420197,-92.01518146599551
109.7516712065656,0.01525155399391151,-9.218586919681679,-92.04882460758566
109.9894261090804,0.01680447806491605,-9.189952971114399,-92.02894678897243
110.2276960597312,0.01812492656784109,-9.176499615493906,-91.99564596690291
110.4664821742659,0.01724155413037782,-9.161482704743861,-92.02242978908987
110.70578557085,0.01657647503902556,-9.145233344449691,-92.02995906296958
110.9456073700706,0.01728820181054583,-9.117925065205984,-92.02102781558253
111.1859486949429,0.01653859278662732,-9.109802198397377,-92.09092672717749
111.4268106709143,0.01646480241721378,-9.081302284833786,-92.07610351948138
111.668194425871,0.01632664647962426,-9.064222340369444,-92.07222598437265
111.9101010901417,0.0163631355658691,-9.048505767910164,-92.0649571899573
112.1525317965046,0.01694035696760737,-9.027920750791727,-92.03411203534112
112.3954876801913,0.01618741476209137,-9.021824739197605,-92.10272206684378
112.6389698788924,0.01736343788848091,-8.978492257219953,-92.06367268008191
112.882979532764,0.01956384622439418,-8.962959366003666,-91.96187385012027
113.1275177844309,0.02064007043296669,-8.951924542890232,-91.9522294487879
113.3725857789947,0.0177183960542092,-8.919116089952496,-92.00459452703123
113.6181846640358,0.01316197760232897,-8.924621823171844,-92.22227657794615
113.8643155896222,0.01864130714040347,-8.892966184306339,-91.99005166541102
114.1109797083121,0.01670741122206988,-8.894410173785612,-92.12233722223888
114.3581781751616,0.01437330641882477,-8.866069768559944,-92.16839466778644
114.6059121477279,0.01645226527040649,-8.844887757065958,-92.12433607003231
114.8541827860769,0.01654061921506559,-8.825006181913132,-92.12320037892312
115.1029912527866,0.01770996630577789,-8.809405252806036,-92.11256970640912
115.3523387129537,0.0168241912713981,-8.783002373395032,-92.11929230192429
115.6022263341996,0.01697284202451208,-8.77299135793076,-92.15763755204111
115.852655286674,0.0165835583189157,-8.745768999070059,-92.14738912238512
116.1036267430624,0.01694678818369456,-8.72962355442967,-92.10785542840853
116.3551418785903,0.01716116448940208,-8.714763142765156,-92.12980196630926
116.6072018710289,0.01649114399267212,-8.69444130599066,-92.13414155378524
116.8598079007009,0.01673700738433552,-8.673586555170743,-92.14735433701425
117.1129611504866,0.01651442976137967,-8.656550146393286,-92.18198272717396
117.3666628058277,0.01746944217573296,-8.639954096065685,-92.15318107193318
117.6209140547345,0.01705732975283039,-8.623256171958703,-92.1814052723099
117.8757160877912,0.01732583768567355,-8.602151199027666,-92.17765215996542
118.1310700981603,0.01719922526183225,-8.584903658269781,-92.19327779947074
118.38697728159,0.01675301536978789,-8.564535066618021,-92.19491742468799
118.6434388364181,0.01689776169208045,-8.547146141865698,-92.19192942511718
118.9004559635785,0.01688710942094711,-8.52192307976512,-92.18416326512255
119.1580298666072,0.01657411166707594,-8.509672503903777,-92.18367147506352
119.4161617516467,0.01712793441664584,-8.490870413816978,-92.20355762230152
119.674852827453,0.01738699430015413,-8.469290633863796,-92.18218331528928
119.9341043054002,0.01696040441565682,-8.453023329587502,-92.19757099512998
120.1939173994868,0.01688912155167797,-8.432022194397423,-92.20551629770637
120.4542933263407,0.01779150940351296,-8.416798759481626,-92.20611420489156
120.7152333052263,0.01607113223057666,-8.393652688235921,-92.27599966985602
120.9767385580485,0.01515964395221257,-8.374897660652659,-92.27598811345
121.2388103093597,0.01625990696892491,-8.358067275410539,-92.28694661476729
121.5014497863648,0.01582613180517544,-8.344857568020965,-92.26926814733856
121.7646582189269,0.01665207411199066,-8.313799110945288,-92.23667349450834
122.0284368395743,0.01620299902332996,-8.308903275823663,-92.26594850722307
122.292786883504,0.01668947263423999,-8.279095794611859,-92.2752193922874
122.5577095885904,0.01834563782955266,-8.267939960690331,-92.22904103349626
122.8232061953875,0.01673224983952496,-8.248882957823675,-92.2513916193364
123.0892779471387,0.01618850167398114,-8.227894160495387,-92.27622568957879
123.3559260897793,0.01715016660127107,-8.209569028834604,-92.28478300488531
123.6231518719445,0.01665042100440635,-8.189555453278468,-92.29197230664124
123.8909565449739,0.01663144503264891,-8.171456824321202,-92.27003549875181
124.1593413629177,0.01656341662642392,-8.153578531086914,-92.28810741041413
124.4283075825436,0.01688020250290231,-8.13486274540975,-92.29421119437521
124.6978564633409,0.01625591913888495,-8.115211866704103,-92.3144237913948
124.9679892675281,0.01656839355338777,-8.096590745042501,-92.30646357964267
125.2387072600575,0.01688466499731323,-8.076815307938446,-92.32419246820174
125.5100117086216,0.01602234759955573,-8.059031878078509,-92.31263867819057
125.7819038836598,0.01579896822674158,-8.040940974107144,-92.30938991519621
126.054385058363,0.01682374947140161,-8.020858610292676,-92.33489043643195
126.3274565086801,0.01648024264558321,-8.002111679182022,-92.33766685539595
126.6011195133249,0.01628770911905818,-7.984444752643721,-92.34769687274847
126.8753753537806,0.01731868564391692,-7.966909119588093,-92.34494880624706
127.1502253143063,0.01699483926149203,-7.945057575932458,-92.3414510843234
127.4256706819441,0.01587524308761243,-7.928280693241987,-92.3600143532002
127.7017127465231,0.01587579556340467,-7.906854894898339,-92.37314499638374
127.9783528006676,0.01649449994599207,-7.890097087983033,-92.36876833577061
128.2555921398015,0.01672530834751196,-7.872148016494283,-92.36723367914968
128.5334320621547,0.01624105351552024,-7.853112492296573,-92.38495668833546
128.8118738687704,0.01673797701532076,-7.835788421569491,-92.38217030146427
129.0909188635091,0.01597545970733055,-7.816504938511343,-92.39026628932638
129.3705683530574,0.01617162563036454,-7.797457241974319,-92.4093872950057
129.6508236469304,0.01649833251361906,-7.77657375768238,-92.40209583662299
129.9316860574822,0.01592053798617292,-7.7613319733267,-92.40831640930642
130.2131568999081,0.01742625313552785,-7.743009096102885,-92.41724975990714
130.495237492254,0.01558046223589262,-7.721745040166108,-92.41343680625886
130.77792915542,0.01662154804224625,-7.70121875966748,-92.42306474972408
131.0612332131678,0.01591957418578673,-7.683712692484336,-92.42439734263198
131.3451509921275,0.01726618942027266,-7.667342350068451,-92.4401701155064
131.629683821802,0.01718172000363127,-7.647422360265475,-92.42596212557974
131.9148330345755,0.01622994651869704,-7.628841254644873,-92.44114201993213
132.2005999657175,0.01749688639746488,-7.61182101490705,-92.4428409054028
132.4869859533906,0.01656978587934568,-7.591915569209769,-92.45465724823333
132.7739923386559,0.01575125675765765,-7.574861851843751,-92.45285558797313
133.0616204654803,0.01667709181907555,-7.552725696112335,-92.45996112233408
133.3498716807413,0.01728780433890261,-7.534648299657185,-92.46261461963664
133.6387473342351,0.01659356855087159,-7.517382447314247,-92.48178305203149
133.9282487786811,0.0157430000665053,-7.497594083736088,-92.49372209021372
134.2183773697293,0.01786819654369239,-7.479821660358915,-92.48376871478322
134.509134465967,0.0165427792242092,-7.460926507270342,-92.48019104117188
134.8005214289236,0.01715638837590938,-7.440979950404548,-92.49096405727325
135.0925396230791,0.01667046618022379,-7.420659253111719,-92.50106766725075
135.3851904158687,0.01736017126826879,-7.405013912100439,-92.51294512156356
135.6784751776896,0.01685594749117357,-7.385880415204902,-92.5096211953377
135.9723952819086,0.01824499005605239,-7.366912992190302,-92.50939426196759
136.2669521048669,0.01741695033945701,-7.346916198570359,-92.52048150106133
136.5621470258875,0.01735120677094117,-7.329094261404922,-92.53422167434448
136.8579814272811,0.01566753646358401,-7.309515142970873,-92.5353183200165
137.1544566943537,0.01698061400190972,-7.292335214678892,-92.54366537955801
137.4515742154113,0.01689796327942099,-7.274910214748264,-92.55209294643271
137.7493353817684,0.01729272189797301,-7.253254665308861,-92.54572266032721
138.0477415877527,0.01652885868019676,-7.233953043829949,-92.56377869962965
138.3467942307124,0.01546230848708747,-7.214873966175073,-92.56859585181863
138.6464947110238,0.01534620681403076,-7.195974004808836,-92.57451085512999
138.9468444320953,0.01602012672541288,-7.178161907115877,-92.57798433395493
139.247844800377,0.01534787417053892,-7.159435816146759,-92.58550606375552
139.5494972253648,0.01675733974014598,-7.141185625530992,-92.58534856895497
139.8518031196084,0.01580342605351962,-7.122275308665202,-92.60251210913091
140.1547638987169,0.01624898163869039,-7.104370834607724,-92.5997230129943
140.4583809813673,0.01607344444657919,-7.083273556534163,-92.61687022857053
140.7626557893085,0.01616297023264561,-7.065934513824708,-92.60510199434209
141.0675897473704,0.01559161123039851,-7.046281721925619,-92.61726911179832
141.3731842834689,0.01575616197818605,-7.028538114604946,-92.62569070751891
141.6794408286129,0.01656233843190084,-7.009697574580022,-92.62321276654279
141.9863608169125,0.01555453411680348,-6.991639372418884,-92.6378724958785
142.2939456855831,0.01578878666275391,-6.973018661171829,-92.63521248062115
142.6021968749546,0.01712990097160194,-6.954660207715397,-92.63830133692201
142.9111158284766,0.01696820544123602,-6.934417140762448,-92.65193227874893
143.2207039927256,0.01649697073787815,-6.916392346657333,-92.65984970157963
143.5309628174116,0.01590865261505953,-6.898886213155635,-92.66452926018869
143.8418937553861,0.01650802626384329,-6.879592461039923,-92.67971917827654
144.153498262647,0.01554050272128462,-6.860024908724479,-92.67259810116249
144.4657777983461,0.01627879481156984,-6.841208392952155,-92.67184943885684
144.7787338247973,0.01713660079002754,-6.823594314741693,-92.68963946607562
145.0923678074811,0.01666942674984852,-6.803372807323607,-92.68713605183653
145.4066812150538,0.01588475365506054,-6.785204751491195,-92.70185081725273
145.7216755193519,0.0164623428671941,-6.764978017024411,-92.70713607039094
146.0373521954019,0.01650608459023562,-6.746886009913268,-92.70022744172086
146.3537127214244,0.01665075664459728,-6.726715230592277,-92.7107723950252
146.6707585788424,0.0164705665506253,-6.709002774449303,-92.71441419330084
146.9884912522891,0.01600071724685705,-6.69020179315699,-92.73075536888079
147.3069122296128,0.01631938446919986,-6.672757177372723,-92.73057555948068
147.6260230018853,0.01658227766361736,-6.652626647043189,-92.73643869087178
147.9458250634083,0.01665007666162514,-6.634598860335631,-92.74874995537147
148.2663199117212,0.01633775949632915,-6.616551590604579,-92.75982812754572
148.5875090476067,0.01607370123716304,-6.597280438810599,-92.76469274805574
148.9093939750996,0.01541994798110142,-6.577161440168842,-92.77205128171167
149.2319762014921,0.01639570795019681,-6.55994890727273,-92.76058021194206
149.5552572373415,0.01556270001014465,-6.54093064546424,-92.78448187059283
149.8792385964785,0.01606081737505038,-6.521360500904113,-92.77694095492977
150.2039217960119,0.01639281805973521,-6.503671255012894,-92.78404193097745
150.5293083563385,0.01536523446785984,-6.483994212736548,-92.80821019188716
150.8553998011467,0.01757487160260893,-6.46586640743995,-92.80966792655184
151.1821976574278,0.01592941327811002,-6.445752792742717,-92.81098852811593
151.5097034554794,0.01572878795324826,-6.42667318348209,-92.8132235559151
151.8379187289154,0.01629730551594849,-6.408687369365036,-92.81832279441096
152.1668450146709,0.01651133608845592,-6.391271360553813,-92.83144670229358
152.4964838530115,0.0151204684563217,-6.3714387092503,-92.8312108159457
152.8268367875386,0.01590969864593164,-6.35361707758479,-92.84292280627767
153.1579053651975,0.01722939860942804,-6.334484712742725,-92.85163222303878
153.4896911362858,0.01639656986215978,-6.316509079998466,-92.84320138350617
153.8221956544582,0.01685902709367028,-6.297931488194943,-92.85995215746573
154.1554204767356,0.01566325594016115,-6.277958431565226,-92.87043127778981
154.4893671635116,0.01580579861957747,-6.259403443292993,-92.86782210987855
154.8240372785609,0.01625339722793746,-6.24059294699185,-92.87907829373258
155.1594323890446,0.01614328506924692,-6.221187424280447,-92.88718911104047
155.49555406552,0.0155094321196895,-6.204466299084173,-92.88784466787043
155.8324038819458,0.01735867355161317,-6.185580451083448,-92.90111776697361
156.1699834156902,0.01704161170445873,-6.168398809848004,-92.90212817693786
156.5082942475396,0.0154105324511217,-6.146446179878302,-92.90515531610973
156.8473379617035,0.01523418822883872,-6.1270340863798,-92.91497526762575
157.1871161458245,0.01623936682265749,-6.110008237643736,-92.93228092304635
157.5276303909836,0.01724346950182113,-6.092285312604224,-92.93065707773437
157.8688822917086,0.01626936474903699,-6.072970020528278,-92.93766310186496
158.2108734459823,0.01539053027484023,-6.051426361053032,-92.94665836199526
158.5536054552485,0.01563139291604452,-6.034333048046112,-92.94419098240037
158.8970799244201,0.01695967666407389,-6.015573396615971,-92.94359468542144
159.2412984618876,0.01633785729704204,-5.998233920588689,-92.94690626888953
159.5862626795249,0.01659978907221649,-5.978087939691857,-92.96762889463163
159.9319741926976,0.01663702305233108,-5.961041983669535,-92.97055472185552
160.2784346202718,0.01520098668676796,-5.940097699296453,-92.98508210300749
160.625645584619,0.0150089278056214,-5.921997522846433,-92.98493524622033
160.9736087116268,0.01607974045692111,-5.902657139350462,-92.99494123552017
161.3223256307038,0.01646313560347185,-5.884980354890548,-92.99561709133776
161.6717979747885,0.01735194603957376,-5.86610130641497,-93.00175617666959
162.0220273803578,0.01626985552382352,-5.848693538265338,-93.01056389990404
162.3730154874323,0.01671675530053573,-5.829048052050969,-93.02400295869374
162.724763939587,0.01573871966448996,-5.810484481188089,-93.0156388944288
163.0772743839553,0.01615905524122504,-5.792647921262361,-93.02645827880326
163.4305484712408,0.01609440153266687,-5.771417904575562,-93.03565023609659
163.7845878557215,0.01511587772116686,-5.75312414109117,-93.04207101077438
164.1393941952605,0.01644603164316972,-5.736975650393705,-93.06228181265082
164.4949691513111,0.01727226982388104,-5.719374413023887,-93.06491755847526
164.8513143889259,0.01668383521496462,-5.69977260004277,-93.0697630709722
165.2084315767657,0.01618818528603905,-5.678020884012796,-93.07595571140121
165.5663223871043,0.01646511641378284,-5.659722797968155,-93.08350185949392
165.9249884958401,0.01650808470233275,-5.64226205085015,-93.07997998562823
166.2844315825004,0.01660676967132236,-5.62289118064446,-93.08971482571268
166.6446533302516,0.01569632754306928,-5.603159970525411,-93.09680884918762
167.0056554259059,0.01606389935554351,-5.585177977998529,-93.113553600416
167.3674395599306,0.01715969222815051,-5.567248094128607,-93.11111330018774
167.7300074264537,0.01568950207004316,-5.548679896846806,-93.12868396325231
168.0933607232746,0.01600121920311099,-5.529564462495438,-93.12626854228701
168.4575011518695,0.01579367824185677,-5.5111226153295,-93.13416414414469
168.8224304174007,0.01593931152936848,-5.492712930795204,-93.13399744551172
169.1881502287253,0.01661510149941036,-5.474544259730819,-93.1472890610236
169.5546622984009,0.01372976184358882,-5.459837109655266,-93.14498771664232
169.9219683426964,0.01642070012813318,-5.434745885583797,-93.13368679056819
170.2900700815977,0.0155322644174378,-5.418486095627287,-93.19031436223831
170.6589692388167,0.01629988552026093,-5.399818862509974,-93.16267672382301
171.0286675418002,0.01560038918183814,-5.381502794815725,-93.18907134121419
171.3991667217364,0.01735900855283806,-5.36392818773211,-93.19611513479538
171.7704685135639,0.01644444830961377,-5.345218431813487,-93.19878427232175
172.1425746559796,0.01619845334630269,-5.324771683334875,-93.19157887086048
172.5154868914477,0.01527473911574073,-5.304143034142768,-93.21063948432626
172.8892069662059,0.01583826190007703,-5.287746548311439,-93.20052260864669
173.2637366302761,0.01683617228681657,-5.269477796809278,-93.21637329180942
173.6390776374701,0.0162007811634745,-5.250028157269035,-93.23434935414171
174.0152317453993,0.01628373874305941,-5.229966361058146,-93.24197950302748
