#Digilent WaveForms Network Analyzer - Bode
#Device Name: Discovery2NI
#Serial Number: SN:210321ABE135
#Date Time: 2021-11-06 17:16:18.343
#Start: 100 Hz
#Stop: 5e+06 Hz
#Steps: 5001
#Wavegen: Wavegen C1
#Amplification: 1 X
#Settle: 10 ms
#MinPeriods: 16 
#Channel: Channel 1
#Range: 5.51199 V
#Offset: 0.000299138 V
#Relative: no
#Channel: Channel 2
#Range: 5.52909 V
#Offset: 6.9788e-05 V
#Relative: yes
#Power Supplies: ON
#Positive Supply: ON
#Voltage: 5 V
#Negative Supply: ON
#Voltage: -5 V

Frequency (Hz),Channel 1 Magnitude (dB),Channel 2 Magnitude (dB),Channel 2 Phase (deg)
100,0.006744806535841906,19.57213427458675,162.4230383808697
100.21662986987,0.006341167196556708,19.57079233917781,162.3850357930731
100.433729024745,0.005539297453768464,19.57010994542174,162.3475618778803
100.6512984812369,0.007366269396992278,19.5662257925097,162.3010472560053
100.8693392581593,0.008116450492969119,19.56280705232539,162.25941718518
101.0878523765327,0.009026791923742386,19.5587182160616,162.232292436336
101.3068388595904,0.009400324917250659,19.55761168059083,162.2178668247922
101.5262997327811,0.006125385129760083,19.55995996378291,162.1812712004316
101.7462360237761,0.007142160635194446,19.55747566518173,162.1154000722939
101.966648762472,0.009989721389142515,19.55136124321752,162.1002153215228
102.1875389809967,0.006316807245484129,19.55480614478969,162.074214449166
102.4089077137146,0.008208314298181507,19.55000275507451,162.0087684295123
102.6307559972299,0.007539637024140613,19.54939038862826,162.0114638431765
102.8530848703935,0.008887270615299233,19.54571727879454,161.9346374256005
103.0758953743053,0.006753170438990904,19.54517984847924,161.9341873869562
103.299188552322,0.008528454606228125,19.54174304954173,161.8657306793709
103.5229654500595,0.006397532078732678,19.54400745526153,161.8515040397966
103.7472271153995,0.009241533710194566,19.53743206430979,161.8203730434715
103.9719745984933,0.009232277214752008,19.53607982228994,161.7505051161234
104.1972089517671,0.006833040180601255,19.5384834560726,161.7306914287531
104.4229312299275,0.007501921329456689,19.53498563920412,161.7158873314416
104.6491424899651,0.009621584426393697,19.52978939918515,161.6743639637404
104.8758437911612,0.009156217936914545,19.52801748671093,161.6135851725728
105.103036195091,0.009607932078355971,19.52710396066593,161.5712286204652
105.3307207656298,0.007178908417094903,19.52770841234708,161.5339157857966
105.5588985689574,0.006782261252097655,19.52624281320617,161.4957058540433
105.7875706735635,0.006248856713178711,19.52550881201381,161.4648196215871
106.0167381502521,0.008272784957947015,19.5212286094103,161.4202148062119
106.2464020721474,0.007884156098615609,19.51916698765956,161.3794461800196
106.4765635146978,0.008571232191920294,19.51567878350543,161.3445123872349
106.7072235556815,0.01068489894276813,19.5116223883174,161.3172364081395
106.9383832752121,0.01010905762051572,19.51061626802995,161.3026260564163
107.170043755742,0.006829327589051887,19.51204594851428,161.2681284836652
107.4022060820697,0.007051878187763766,19.51112943230877,161.2010278939913
107.6348713413428,0.01151537026214609,19.50379262724337,161.160533817081
107.8680406230641,0.007960470411976714,19.50531618738454,161.1552027795209
108.1017150190971,0.008335928321015278,19.50471570413326,161.088339113809
108.3358956236703,0.01008724335965473,19.49874045107815,161.0606414012385
108.5705835333823,0.004568825957122135,19.50260910034977,161.0296133229526
108.8057798472076,0.009435451580624879,19.49481512915197,160.9746813635376
109.0414856665016,0.006260229350454616,19.49776085362207,160.9504418408607
109.277702095005,0.01037211712625296,19.49080913876083,160.9070330015952
109.5144302388504,0.005920505971259929,19.49451334008566,160.8637873836181
109.7516712065656,0.00876668004769347,19.48809919066481,160.8435193484098
109.9894261090804,0.009556560945431787,19.48535487692861,160.7814678734028
110.2276960597312,0.005725773910079799,19.48769207742416,160.7506679851356
110.4664821742659,0.007845709698164522,19.48373887680651,160.7323700067567
110.70578557085,0.009153204681276703,19.47926018446652,160.6915573488916
110.9456073700706,0.009736424465238204,19.47608397918933,160.6368450669147
111.1859486949429,0.008293027046801765,19.47593752560946,160.5852637450201
111.4268106709143,0.007085343049814228,19.47523329223682,160.5441332865377
111.668194425871,0.007495526963171914,19.47303858341691,160.5067617146316
111.9101010901417,0.008415513223198908,19.47097883913124,160.467296071134
112.1525317965046,0.006908955639449942,19.46883286171232,160.4296872289455
112.3954876801913,0.007010547222511955,19.46650349479295,160.3916543441847
112.6389698788924,0.007047984708719236,19.46458620820079,160.3521955654745
112.882979532764,0.008814404859599809,19.46084669667707,160.3137797325234
113.1275177844309,0.009135683668207202,19.45860179644717,160.2794969377671
113.3725857789947,0.008762749272926987,19.45667777134831,160.2572995379963
113.6181846640358,0.006727099216626755,19.45747820064546,160.2153505247973
113.8643155896222,0.008988159250286159,19.45225622372867,160.1571811731796
114.1109797083121,0.009027915857012446,19.44965859729712,160.1429904997032
114.3581781751616,0.006170961768187234,19.45148757513111,160.0853566485109
114.6059121477279,0.009818646980476126,19.44475951671279,160.0430007190444
114.8541827860769,0.007807173142387996,19.44525085048111,160.0192474491256
115.1029912527866,0.008517771133632591,19.44102805733315,159.9638316784542
115.3523387129537,0.007803148009156777,19.44067028307846,159.9354722371738
115.6022263341996,0.008431006085951756,19.43605834533554,159.883767707156
115.852655286674,0.006675866394185008,19.43786459480138,159.8475004280481
116.1036267430624,0.008740808424824461,19.4321609527116,159.8175409481758
116.3551418785903,0.008046423889367698,19.43116726792156,159.7629261934878
116.6072018710289,0.007874432789947233,19.4287594750084,159.7376424826062
116.8598079007009,0.009207206690316107,19.42481002480488,159.6874615065786
117.1129611504866,0.007118565887905803,19.42503121780002,159.6431719702885
117.3666628058277,0.007745962575738369,19.42243221565484,159.6151614228635
117.6209140547345,0.007551036371280158,19.41959385174204,159.5783871797667
117.8757160877912,0.01115255981739249,19.41497271677967,159.5322795280921
118.1310700981603,0.008144517188965361,19.41395618686662,159.4888099688293
118.38697728159,0.008855593959209698,19.41113011447578,159.4402118760987
118.6434388364181,0.008356528115418699,19.41044537974467,159.3947752934669
118.9004559635785,0.00850200573740967,19.40745725412577,159.3538202851084
119.1580298666072,0.007709261887241521,19.40567977611252,159.3195696172248
119.4161617516467,0.008472905355139521,19.40339054614927,159.2815723466282
119.674852827453,0.009936531811308918,19.39972200402731,159.2358653325003
119.9341043054002,0.009066672270713224,19.39707473505626,159.2010618006501
120.1939173994868,0.008235106435612568,19.39570135596875,159.1643266003566
120.4542933263407,0.007586928146647874,19.39428673483951,159.1216354735589
120.7152333052263,0.007247104847327733,19.39275604634903,159.0769199072944
120.9767385580485,0.007112583346753494,19.38971574540895,159.0346209700083
121.2388103093597,0.01061709145587317,19.38483916431249,158.994668243002
121.5014497863648,0.007725097448396976,19.3846411119364,158.959665146308
121.7646582189269,0.007158476943899704,19.38302797591897,158.9106338914991
122.0284368395743,0.008474089886605389,19.37852039049509,158.8755619918247
122.292786883504,0.007507783860841072,19.3773582147283,158.8229138636606
122.5577095885904,0.009224034704836489,19.37312472557727,158.7908802551932
122.8232061953875,0.008474142675080279,19.37155080239754,158.7487243321614
123.0892779471387,0.007928149455483596,19.36843162965049,158.7072185962417
123.3559260897793,0.007852938730035054,19.36669846319536,158.6638107677105
123.6231518719445,0.008962738597535512,19.36355243797378,158.6249619950947
123.8909565449739,0.008176815420194841,19.36105872515903,158.5701491581993
124.1593413629177,0.00724696864134215,19.36009159415286,158.5402516939494
124.4283075825436,0.007921075112971274,19.35653716879816,158.4993850848688
124.6978564633409,0.009069022936406651,19.35319866130552,158.4528746567562
124.9679892675281,0.007995577735937889,19.35136467039818,158.4062675247468
125.2387072600575,0.008611502757542088,19.34835540911104,158.3691340097605
125.5100117086216,0.008051667033906256,19.34641779349287,158.3249825065661
125.7819038836598,0.008732592895771569,19.34321801282136,158.2811512381583
126.054385058363,0.008852202251993815,19.34090265188833,158.2395339657799
126.3274565086801,0.009188224015428879,19.33810642210612,158.1941169962449
126.6011195133249,0.007709498127861811,19.33687344072445,158.1524498750632
126.8753753537806,0.007757506147955587,19.33281231241665,158.1060680212097
127.1502253143063,0.007589149013672536,19.33092380108051,158.0707296613801
127.4256706819441,0.00859812337217535,19.32791717204404,158.0277307042569
127.7017127465231,0.009192394798851184,19.32477850842946,157.9830283651709
127.9783528006676,0.007843614625464875,19.32298007157376,157.9402906157026
128.2555921398015,0.007683781410988371,19.32097064074161,157.8949185448709
128.5334320621547,0.009132060942974744,19.31687342136811,157.852875704237
128.8118738687704,0.008768234504055169,19.31466276583415,157.8079819830831
129.0909188635091,0.009120462945239079,19.31162332129351,157.7688074961885
129.3705683530574,0.007613910543907645,19.30912294066233,157.721024977918
129.6508236469304,0.008585260740368651,19.30620366233756,157.6801202268491
129.9316860574822,0.008448785936917664,19.30395887095685,157.635527005836
130.2131568999081,0.007322201374959279,19.30188180408203,157.5946550108874
130.495237492254,0.007835391339162365,19.29826842185598,157.5548519909142
130.77792915542,0.007161357478156614,19.29565210870552,157.5142856382954
131.0612332131678,0.008869193466153519,19.29282768592452,157.4597193065112
131.3451509921275,0.00884460837893767,19.28999402789201,157.4185023216984
131.629683821802,0.008808175293994592,19.28702526377434,157.3755723187261
131.9148330345755,0.00832681467733825,19.28376446643953,157.3301488384591
132.2005999657175,0.008274668757940662,19.28218103497476,157.2899131468445
132.4869859533906,0.008834216190737917,19.27903468886806,157.246617402813
132.7739923386559,0.007346944796878109,19.27656714272088,157.1982133333849
133.0616204654803,0.009595814256308011,19.27232823267065,157.1554437873355
133.3498716807413,0.007969643820020555,19.27081632663103,157.111099218759
133.6387473342351,0.007836718440775919,19.26704804371095,157.0685351274548
133.9282487786811,0.007232300618817073,19.2642823531537,157.0205650746393
134.2183773697293,0.009265853870342721,19.26107622336948,156.9753534546935
134.509134465967,0.009477203662440236,19.25843306497103,156.9322718116147
134.8005214289236,0.008815807454573853,19.25590416441192,156.8935293391813
135.0925396230791,0.00778065228386137,19.25321666623673,156.8470059826782
135.3851904158687,0.008402659945779739,19.24989777205254,156.8034454833642
135.6784751776896,0.008794561505963864,19.24677203400666,156.7548399548148
135.9723952819086,0.008630767227801948,19.24350481646941,156.7060657290592
136.2669521048669,0.009563106484304144,19.24028083494565,156.6670925323598
136.5621470258875,0.008160661424874776,19.23827307411101,156.6163561537353
136.8579814272811,0.009794195480418745,19.23400017721207,156.5697743533105
137.1544566943537,0.008030555864961882,19.23206542545715,156.5307677316409
137.4515742154113,0.007949857922397975,19.22935363163037,156.4809394456725
137.7493353817684,0.007514306734298673,19.2261693537816,156.4396475347854
138.0477415877527,0.00800357299253312,19.22287257266532,156.3973408046155
138.3467942307124,0.007982127820711688,19.21993317369866,156.3473869151561
138.6464947110238,0.009861362589044666,19.21619888130294,156.3022885983121
138.9468444320953,0.008643311432291849,19.2138194535933,156.2597156641748
139.247844800377,0.008453062144187616,19.21137601982608,156.2082747099275
139.5494972253648,0.006271314258755003,19.20896723469713,156.1638789630944
139.8518031196084,0.007858983581183076,19.20468117288412,156.1170163835559
140.1547638987169,0.008341919137864933,19.20155424082712,156.0737968347622
140.4583809813673,0.008450467133307913,19.1978282813448,156.026638768758
140.7626557893085,0.007441828690053551,19.1955993578418,155.9848980106101
141.0675897473704,0.008982858351780948,19.19183249723665,155.9311943788913
141.3731842834689,0.008065229404393684,19.1888630500686,155.8881879685013
141.6794408286129,0.008333097867623542,19.1863738314422,155.8469750470267
141.9863608169125,0.006778824302162777,19.18341331492182,155.8006904255875
142.2939456855831,0.008312399159699146,19.17925699637037,155.7519455627672
142.6021968749546,0.008183160269021295,19.17618631043877,155.702808357898
142.9111158284766,0.007204640943181738,19.17386757807597,155.6566995186035
143.2207039927256,0.008468422880121639,19.16934407920153,155.6141566738503
143.5309628174116,0.008537264629175556,19.16725654132711,155.5667231994927
143.8418937553861,0.008302777961353204,19.16301197549653,155.5199672897077
144.153498262647,0.007880062336683008,19.16047171938882,155.4713090620772
144.4657777983461,0.008664131934387104,19.15741666703306,155.4220891274822
144.7787338247973,0.008262363378798593,19.15405805005568,155.3756303186056
145.0923678074811,0.008370222726069326,19.15059115177536,155.3323570806432
145.4066812150538,0.006680365849514194,19.14850004238374,155.2816328383194
145.7216755193519,0.008293209309947664,19.14387769198379,155.2378521647441
146.0373521954019,0.007870345417404549,19.14038622195086,155.1911008630203
146.3537127214244,0.008011619223609524,19.13746087803264,155.1458407594634
146.6707585788424,0.008308194218643429,19.13363785327774,155.0970280758496
146.9884912522891,0.007710207713935716,19.13136491889029,155.0509554413697
147.3069122296128,0.009009218370733665,19.12604833604269,155.0017884029454
147.6260230018853,0.007287089761743696,19.12419259378365,154.9531154539111
147.9458250634083,0.008506838698950026,19.1205599351456,154.902522812927
148.2663199117212,0.008868244784481526,19.11659618677797,154.858953533403
148.5875090476067,0.007340929761038977,19.11412635814806,154.8159549101393
148.9093939750996,0.008330653836639971,19.11049370287333,154.7625795354796
149.2319762014921,0.008419708506174586,19.10702871260822,154.7144713614966
149.5552572373415,0.00880174468732239,19.10295315544317,154.6690123436442
149.8792385964785,0.009479532362031083,19.09986103022669,154.6210501841123
150.2039217960119,0.008787715639351986,19.09600827653738,154.5707128717584
150.5293083563385,0.008669322597522698,19.09288737904292,154.5267998417509
150.8553998011467,0.007839931206049575,19.08942729969735,154.4787451366295
151.1821976574278,0.009237503517717327,19.08547891061197,154.4229633188314
151.5097034554794,0.009561136584113158,19.08194973918876,154.3809039331892
151.8379187289154,0.008638216006146931,19.07857036188143,154.3276394240243
152.1668450146709,0.00764697832916974,19.07547822694175,154.2789064129609
152.4964838530115,0.008953667961253079,19.07058040762189,154.2352473112861
152.8268367875386,0.009020405477151217,19.0678728263966,154.1917953615494
153.1579053651975,0.009585244013328336,19.06399675177275,154.1364512342127
153.4896911362858,0.007719288665906578,19.06091902562314,154.0888036629158
153.8221956544582,0.009119186401140495,19.05694489841452,154.0439043020475
154.1554204767356,0.007978415887886293,19.05332811078427,153.9933149200244
154.4893671635116,0.009267040664189357,19.0492188292377,153.9479270094395
154.8240372785609,0.008103662793808017,19.04565182356838,153.8944360030296
155.1594323890446,0.008203481831583379,19.04235420531047,153.8444004008909
155.49555406552,0.008019177590916676,19.03862023786031,153.8001771527836
155.8324038819458,0.008630466799852493,19.03431138029345,153.7522542138468
156.1699834156902,0.009657614688317037,19.03108637192365,153.6980185028563
156.5082942475396,0.007050009428664039,19.0283925921618,153.6521647815089
156.8473379617035,0.008291424849447414,19.02382137327165,153.5947109001982
157.1871161458245,0.008063879587392339,19.02053966914903,153.5527588760467
157.5276303909836,0.00783864775540229,19.01631194619883,153.5016824360588
157.8688822917086,0.008971411756617201,19.01188804493216,153.4484224161624
158.2108734459823,0.008970303900858758,19.00868522902458,153.407821756949
158.5536054552485,0.00720134739833799,19.00544330484171,153.3584698570495
158.8970799244201,0.007946023750278962,19.00156248364752,153.3032831652083
159.2412984618876,0.008998153334353927,18.9967311197087,153.2488910828605
159.5862626795249,0.008709352532650422,18.9937197955314,153.2055965920484
159.9319741926976,0.007756404032595725,18.99057614477545,153.1562917558026
160.2784346202718,0.008446633885650952,18.98605840010157,153.1090783107599
160.625645584619,0.008380597202180646,18.98265934036311,153.0506079204648
160.9736087116268,0.007679541601743096,18.9789620271434,153.0080205810453
161.3223256307038,0.008763135456503562,18.97381254966452,152.9515299114323
161.6717979747885,0.009101660471234573,18.96990397121034,152.905740885101
162.0220273803578,0.009707157157033597,18.96579958771414,152.858307066153
162.3730154874323,0.008926784653510189,18.96233855792818,152.8106633910874
162.724763939587,0.009279134339959522,18.95798258791867,152.7569518586823
163.0772743839553,0.00841036243717466,18.95375677660176,152.7010340210749
163.4305484712408,0.009282776585315865,18.95042311570887,152.6515626519227
163.7845878557215,0.007695709413762624,18.94696832400329,152.608986105951
164.1393941952605,0.008662765636355403,18.94206595629545,152.5482052076587
164.4949691513111,0.006785985007968448,18.93910459356842,152.4969391017675
164.8513143889259,0.007906256490660469,18.93403695530073,152.4455821165403
165.2084315767657,0.00828115263358762,18.93022157039253,152.3975232932981
165.5663223871043,0.008590959491644311,18.92636756347359,152.3465406646813
165.9249884958401,0.00951894461402553,18.92216502482624,152.3006156612254
166.2844315825004,0.009090081362301406,18.91757393890302,152.2520691576968
166.6446533302516,0.008044695168406177,18.91420070232476,152.1991703217158
167.0056554259059,0.009326442014382532,18.90958678879814,152.1479329765291
167.3674395599306,0.008600737470761741,18.90517742211261,152.0929919563543
167.7300074264537,0.008165052196009319,18.90170331584605,152.0456550239814
168.0933607232746,0.008421602555993361,18.89741705316372,151.9998095630474
168.4575011518695,0.008252629514384043,18.89362260284456,151.9403536199015
168.8224304174007,0.008480317371192673,18.8899709462308,151.8839726653958
169.1881502287253,0.009661922122595177,18.88416134930981,151.8394976844972
169.5546622984009,0.006344851973844158,18.88207928689232,151.7841072151767
169.9219683426964,0.007687556623035063,18.87703432219693,151.7369050437575
170.2900700815977,0.009648285152565005,18.87181394317947,151.6847084971529
170.6589692388167,0.006621138571199672,18.86894493924546,151.6318561841702
171.0286675418002,0.008835376940751762,18.86309440762891,151.5780743506461
171.3991667217364,0.009006270570977779,18.85939460796839,151.5300938469795
171.7704685135639,0.007842957050490379,18.85578613377457,151.4742477232774
172.1425746559796,0.008826234859982005,18.85080238193719,151.422116770731
172.5154868914477,0.007692403584913659,18.84722677039447,151.3692275782404
172.8892069662059,0.008711855679838051,18.84350555784482,151.3249859476926
173.2637366302761,0.008251631790299065,18.83793031079301,151.2706232328203
173.6390776374701,0.007977903290749468,18.83293727343144,151.2198190339954
174.0152317453993,0.009067708366225944,18.82822733118003,151.1710423246783
174.3922007154833,0.006754077202740135,18.82515057117696,151.1171296909905
174.7699863129564,0.009322399848747016,18.81962385587734,151.0597156209905
175.1485903068779,0.009424570899381502,18.81581618825255,151.0112982086061
