#Digilent WaveForms Network Analyzer - Bode
#Device Name: Discovery2NI
#Serial Number: SN:210321ABE135
#Date Time: 2021-11-30 16:06:05.285
#Start: 100 Hz
#Stop: 100000 Hz
#Steps: 2001
#Wavegen: Wavegen C1
#Amplification: 1 X
#Settle: 10 ms
#MinPeriods: 16 
#Channel: Channel 1
#Range: 5.51199 V
#Offset: 0.000299138 V
#Relative: no
#Channel: Channel 2
#Range: 5.52909 V
#Offset: 6.9788e-05 V
#Relative: yes
#Power Supplies: ON
#Positive Supply: ON
#Voltage: 5 V
#Negative Supply: ON
#Voltage: -5 V

Frequency (Hz),Channel 1 Magnitude (dB),Channel 2 Magnitude (dB),Channel 2 Phase (deg)
100.0000000000001,0.009852527951886486,-18.19564997124502,78.53320773111558
100.3459849147839,0.007733045839218564,-18.22270328967111,78.09859856425444
100.6931668851805,0.01169448567934803,-18.42458987765935,78.85726332780283
101.0415500528214,0.009813705828487951,-18.25597141382335,78.59772702249222
101.391138573668,0.009887122427439471,-18.24716854026513,78.63968753919653
101.7419366180606,0.008920915069737747,-18.27282456775847,78.81569468086698
102.0939483707681,0.01148149486540337,-18.15824755798234,78.58756463269239
102.4471780310382,0.01151569964913984,-18.16470577305583,78.69491636279524
102.8016298126474,0.01219315572089459,-18.15670922336454,78.76647849456734
103.1573079439511,0.009896871527380629,-18.07373774919213,78.59362954857298
103.5142166679345,0.01127388743402334,-18.08189086386886,78.71972063358234
103.8723602422622,0.0108326705679981,-18.05457021957886,78.49357777556665
104.2317429393305,0.01191272117459922,-18.06527836233749,78.59965746922421
104.5923690463169,0.00998525026561619,-17.96225522312288,78.21119339042248
104.9542428652323,0.01150912513866282,-17.94023372379015,78.42330778756951
105.3173687129717,0.01210247073508191,-17.95690216246759,78.6321694346846
105.681750921366,0.008707504407028381,-17.83458847632874,77.73737200138189
106.0473938372333,0.0134980810732876,-17.77359123146696,79.0788901789852
106.4143018224318,0.01544441023684459,-17.7902908061956,79.40543901731735
106.7824792539099,0.01007522024597845,-17.67429983335166,77.80296770986264
107.1519305237607,0.01357278251763941,-17.87141550553561,78.62367826158598
107.5226600392727,0.01029983352966867,-17.80935338405888,78.03190947827615
107.894672222983,0.01126569833843029,-17.74218759730338,78.21647712344689
108.26797151273,0.01007399014230822,-17.68268905870487,77.86053438248794
108.6425623617067,0.01245645311194053,-17.68457375228782,78.28457191657397
109.0184492385128,0.009904588167200232,-17.67259747352142,78.06371806216902
109.3956366272095,0.01056359642859279,-17.62190942185433,77.92274594958279
109.7741290273714,0.01186038757201812,-17.61317891271976,78.10176704789438
110.1539309541416,0.0105049689107856,-17.57811343674582,77.71893923957528
110.5350469382844,0.01051651091863077,-17.53004856815194,77.75740376433872
110.9174815262402,0.01100317833140058,-17.47513843144888,77.81225087476358
111.3012392801792,0.01134988392263278,-17.51955757586878,77.78330867694844
111.6863247780562,0.01067636830407747,-17.45133821990297,77.61152378325302
112.0727426136648,0.01195915089183496,-17.42146722962101,77.68771415372112
112.4604973966928,0.01015358283268931,-17.41698137912072,77.45654132073776
112.8495937527762,0.01030512074875032,-17.27425246953098,77.5157820841689
113.2400363235558,0.01088494831536257,-17.22610059881424,77.58130372833712
113.6318297667311,0.008854833259749301,-17.24989406657017,76.92069152967264
114.024978756117,0.01368007916710234,-17.28589812453428,78.0142137613509
114.4194879816987,0.01120955933472957,-17.29768055778636,77.38327776871341
114.8153621496884,0.01065105454472061,-17.23151165443823,77.38984327235509
115.2126059825808,0.009978134190566795,-17.20996957013314,77.3352123503882
115.6112242192101,0.01033538138726588,-17.1732938641026,77.40168583009003
116.0112216148054,0.01096997572371086,-17.11507697435951,77.17269154449824
116.4126029410492,0.01076557717715858,-17.08578436090418,77.34079090289565
116.8153729861326,0.01046876200631659,-17.06881278265833,77.22801236577943
117.2195365548131,0.01045597287529206,-17.03359370043028,77.22522504188476
117.6250984684724,0.01078431155298317,-17.0289984896722,77.20243783831859
118.0320635651731,0.01098032301570444,-16.99801066765956,77.03280108946902
118.4404366997167,0.01136900152039211,-16.96144152804122,77.04737325568223
118.850222743702,0.01074625719790981,-16.94511647814902,76.9990827944553
119.2614265855822,0.01018520036437268,-16.88327973104455,76.90379732028019
119.6740531307244,0.0118261957900697,-16.85923686448692,76.93222899780986
120.0881073014672,0.01091868580828874,-16.84486320464619,76.87626854109956
120.5035940371799,0.01110139716634932,-16.82495022867874,76.78568131262973
120.920518294321,0.01089455397080735,-16.77800476065756,76.60937576187173
121.3388850464979,0.01108654593648137,-16.78342240143022,76.57092386434454
121.7586992845256,0.0116668603174821,-16.7227642756744,76.96684263585199
122.1799660164873,0.01201503097679294,-16.73110920127701,76.72372598641998
122.6026902677924,0.01021546514670267,-16.68768255346489,76.52383183739531
123.0268770812382,0.01133678474642963,-16.64913215492089,76.49266700330485
123.4525315170691,0.009879355799251206,-16.61507672136749,76.54063804600676
123.879658653037,0.01181501093995058,-16.58577559314014,76.50375692592806
124.3082635844624,0.01047170743841943,-16.5482817721674,76.44843615168921
124.7383514242945,0.01174408090416523,-16.52820614596877,76.47278523949414
125.1699273031725,0.01111256566166006,-16.50380454665191,76.37989027310485
125.6029963694877,0.01080947807587307,-16.47169579341981,76.30731181192527
126.0375637894426,0.01121659982978827,-16.44805794745889,76.24561029110396
126.4736347471152,0.01105533362248816,-16.41060176860804,76.2133190877699
126.9112144445192,0.01122258688155747,-16.38683667235625,76.17700621398248
127.3503081016663,0.0108864968419194,-16.36024092710704,76.13968633397123
127.7909209566289,0.01113408320371694,-16.33609616874037,76.08821499966595
128.2330582656023,0.01188163354479351,-16.30264789953869,76.04409839730289
128.6767253029673,0.01139299745334428,-16.27048152973889,75.99480136349447
129.1219273613536,0.01085085138579703,-16.23734415432116,75.99059840079488
129.568669751702,0.01104894942280948,-16.21313664533408,75.9340557416331
130.0169578033291,0.0128556595160335,-16.1857124931681,75.91599083603509
130.4667968639896,0.01083973812036817,-16.14866184014981,75.86205288097214
130.9181922999408,0.01145162628457949,-16.13346772747056,75.75651398207071
131.3711494960064,0.01082682494428358,-16.09681904792178,75.69725622531737
131.8256738556409,0.009795866065243325,-16.06559420011425,75.67014911456377
132.2817708009935,0.01103051957758693,-16.04334203185075,75.66531044842074
132.7394457729741,0.01131607019751808,-16.01439106684981,75.58447626939295
133.1987042313163,0.01061159875330602,-15.98583904423614,75.56220513306239
133.6595516546443,0.01068694760946675,-15.95085682581899,75.54294111683727
134.1219935405372,0.01120783883230234,-15.92304024178898,75.43452870494623
134.586035405595,0.01143847968936625,-15.90185798194892,75.44741347843052
135.0516827855041,0.01194021261561056,-15.86516403782126,75.38293737637672
135.5189412351038,0.01108365334928295,-15.83795793288466,75.33018361481719
135.987816328452,0.01110781213887874,-15.81207884626805,75.27718462881532
136.4583136588927,0.01130363561036647,-15.78524723382524,75.22030912003028
136.9304388391208,0.01158674612436224,-15.75675293880805,75.18466214995431
137.4041975012516,0.01143378254370532,-15.72763910701357,75.13504786923295
137.8795952968859,0.01122240965695504,-15.69556696997834,75.09226582559978
138.3566378971782,0.0113860473881724,-15.66557842652449,75.05763251932326
138.8353309929047,0.0113578173434644,-15.63756392909592,74.97550792789852
139.3156802945305,0.01113785347557088,-15.60683910887819,74.94286980918412
139.797691532278,0.01029609519198,-15.58434936709245,74.89478196646427
140.281370456196,0.01069231987531129,-15.55603202110478,74.85414770444362
140.7667228362265,0.01099093178224469,-15.52408395956607,74.7570937803816
141.2537544622755,0.01094642327366246,-15.5076584872197,74.71772636379455
141.742471144281,0.01029606892201703,-15.45934713840969,74.67625538239689
142.2328787122821,0.01082407662352236,-15.43468831256445,74.62602486777241
142.7249830164896,0.01044305715238271,-15.4157345998646,74.59723124668112
143.2187899273545,0.01092967541550346,-15.38357195569486,74.54000825727421
143.7143053356391,0.01073570611906272,-15.35995150586009,74.45363926692043
144.2115351524871,0.01110611373738891,-15.32686299607968,74.45900160939514
144.7104853094929,0.01229260748971088,-15.30149339522712,74.35843709126304
145.2111617587744,0.01121211815432491,-15.27157443971132,74.35511434685871
145.7135704730422,0.01196068653926262,-15.23846545190187,74.31219834618241
146.217717445672,0.01216809757436134,-15.21290579589305,74.21105522465378
146.7236086907754,0.01036282972246506,-15.18219960125239,74.19078255896684
147.2312502432721,0.01230365085755767,-15.15111757484296,74.11979116017557
147.7406481589614,0.01298311599515204,-15.1297572760431,74.09321201117459
148.2518085145956,0.01142059354730263,-15.10117116374687,74.01826892015535
148.7647374079503,0.01073332843844057,-15.06889516536696,73.99393998934416
149.2794409578997,0.01131926333405434,-15.04214752108993,73.89955835193354
149.7959253044879,0.01221962425447512,-15.00744307816301,73.91352028114856
150.3141966090022,0.01194132542405721,-14.98380284413538,73.86232421383326
150.8342610540482,0.01152740948736961,-14.9499675080525,73.75638505147785
151.356124843621,0.01048614166557721,-14.9308177230204,73.72296986042677
151.8797942031813,0.01141794605091529,-14.89820837718231,73.67746012656592
152.4052753797292,0.01153987542911048,-14.86829555597103,73.59415779300464
152.932574641878,0.01209965803053326,-14.84928796066144,73.56334374618297
153.4616982799296,0.01027108793021641,-14.81609060696115,73.51599543954538
153.9926526059494,0.01171797706567318,-14.7843548904965,73.48180031941628
154.5254439538414,0.01020128210937337,-14.76012417540925,73.37944509306143
155.0600786794248,0.0112585655775093,-14.72904761968685,73.35013090633667
155.5965631605077,0.01061786004828954,-14.70222092001585,73.29347935952678
156.1349037969651,0.01235470073545218,-14.6733927969939,73.26017217588864
156.675107010815,0.01067303889564343,-14.64603582831765,73.16133438924655
157.217179246294,0.01123665659668576,-14.61357871581274,73.11109688297327
157.761126969935,0.009929519018292214,-14.58560963553118,73.07802611116816
158.3069566706441,0.0121204551204432,-14.56469423116059,72.9721301306553
158.8546748597779,0.01032127101005487,-14.52950858701749,72.94059222073489
159.404288071222,0.01102510948160574,-14.50321712760751,72.88405651866591
159.9558028614671,0.01026986388618199,-14.47790949262061,72.8740344138693
160.5092258096892,0.01210562822699485,-14.4437310244128,72.77961389412403
161.0645635178271,0.01035802626807241,-14.41384888931375,72.74589202080834
161.6218226106614,0.01038093492302693,-14.38918106187474,72.67840107032448
162.1810097358932,0.01071241855488191,-14.36456879588621,72.61309211876389
162.7421315642236,0.01178097729319177,-14.33412115296679,72.60464232607191
163.3051947894335,0.01147484538171273,-14.30424702385204,72.51846449926954
163.8702061284636,0.01073218206415309,-14.28089737865193,72.45983027782954
164.4371723214932,0.01119049117785811,-14.25036189508228,72.41816124454638
165.0061001320229,0.01076660621173582,-14.22656549226172,72.34021438674363
165.5769963469529,0.01157819545242313,-14.193118017073,72.30219251906456
166.1498677766657,0.01171496668575646,-14.1683892248877,72.22682063722554
166.7247212551064,0.01070102976024071,-14.13927242827609,72.18068381130675
167.3015636398647,0.01141144477507131,-14.11253392184996,72.09851316061068
167.8804018122561,0.01028692421530814,-14.08327257399673,72.05180541904784
168.4612426774053,0.0120407814870438,-14.05249838467845,72.00661006778648
169.0440931643265,0.01213198930502257,-14.02383018368498,71.96919864406057
169.6289602260084,0.01047843599154504,-14.00851832499285,71.91579395358698
170.2158508394952,0.01042025945774916,-13.96544044972932,71.87123119352596
170.804772005971,0.0121952660939272,-13.94916216946674,71.74495634944176
171.3957307508427,0.01046459202949069,-13.91631058027625,71.67047334694094
171.9887341238243,0.01152983865878947,-13.88637578059802,71.66263759184353
172.5837891990204,0.01181274136696154,-13.86591986302113,71.58652770129788
173.1809030750117,0.01109869105139612,-13.83601467707084,71.52389205434842
173.7800828749376,0.01104952405410225,-13.80493077416835,71.45983740950888
174.3813357465839,0.01130842192345547,-13.77414021904572,71.40721422403753
174.9846688624658,0.01213465004656066,-13.74798989581531,71.3620539073283
175.5900894199146,0.01080671463835191,-13.7219258692087,71.28618646171951
176.1976046411631,0.01196644536174019,-13.68868218999664,71.22641342289786
176.8072217734322,0.01074971007815475,-13.65653995559807,71.18565342781098
177.4189480890166,0.01087558722656865,-13.63702213345329,71.08082514408788
178.0327908853731,0.01171217544134205,-13.61361918721089,71.02067046425211
178.6487574852052,0.01122812379094643,-13.57165149481845,70.95436865605555
179.2668552365529,0.01169518533304329,-13.57800225368635,70.86535612875886
179.8870915128789,0.0107580510105998,-13.51881366002469,70.75480489340399
180.5094737131571,0.01064348220602367,-13.50067225262379,70.77879211380022
181.1340092619604,0.01171144173948278,-13.47427281454378,70.77243742629786
181.7607056095501,0.01187766507600044,-13.44090439883889,70.60434889257233
182.3895702319639,0.01065594653975436,-13.42464845436452,70.6347513665491
183.0206106311059,0.01167373346012108,-13.388366886877,70.57420968069637
183.6538343348347,0.01131589848795935,-13.36188079115516,70.47184826882402
184.2892488970556,0.01018414999672614,-13.33885444745596,70.43338275986183
184.926861897808,0.01283213920169631,-13.30368704332559,70.37738021857122
185.5666809433577,0.01110434836926951,-13.27889329830135,70.29388576105468
186.2087136662869,0.01182037679925905,-13.25583359197348,70.24397338509611
186.8529677255855,0.0120322601152584,-13.21279336054601,70.19263331474215
187.4994508067419,0.01138184717580784,-13.19297183060839,70.13457427014134
188.1481706218362,0.0109171186636236,-13.15756107462639,69.9258983394385
188.7991349096295,0.01157361119329396,-13.14991434812047,70.17119773737355
189.4523514356593,0.0102125358402075,-13.13643181436483,69.79335748594909
190.1078279923302,0.01033249921690703,-13.10455980847368,69.76943321447141
190.765572399007,0.01043099557650548,-13.06123587741122,69.84362741842514
191.4255925021088,0.01128026777148661,-13.02802591595296,69.73587980205679
192.0878961752018,0.01077259018963308,-12.99527167712157,69.66718983370386
192.7524913190937,0.01077928364084125,-12.97563906899353,69.54722660253469
193.4193858619281,0.01036886814863909,-12.94451085478517,69.54982455862537
194.0885877592779,0.01055843668314708,-12.92465174928631,69.4753320184777
194.7601049942422,0.01094685761039849,-12.89547837549388,69.45828370099916
195.4339455775396,0.01054553277869579,-12.8656920733536,69.30867214320487
196.110117547605,0.01220186253608268,-12.84112440323432,69.27885926776402
196.7886289706847,0.01129940570802606,-12.80928368462567,69.23624011257468
197.4694879409334,0.01180750033581659,-12.78661294485098,69.11164313794093
198.1527025805099,0.01097573155705843,-12.75451605867779,69.0811075412195
198.8382810396754,0.01146736953162655,-12.71666921362526,69.06314980086412
199.5262314968881,0.01050685098641483,-12.72230601160273,68.84805963333855
200.2165621589042,0.009903869287583402,-12.66942690306591,68.65666447805695
200.909281260873,0.00929008410196519,-12.66664150259444,68.65272434076508
201.6043970664364,0.01202777859310027,-12.61437666535435,68.83225239958047
202.3019178678274,0.01039836567709409,-12.59773276628026,68.69087030022715
203.0018519859687,0.01013832889306411,-12.5644120705508,68.5915601221202
203.7042077705719,0.01163585134104267,-12.54333894273416,68.53316908227256
204.4089936002384,0.01077785578553228,-12.51068157765184,68.4178139293781
205.1162178825567,0.011251800837323,-12.4839734938461,68.41370462429273
205.8258890542057,0.009577360954297164,-12.45524758975627,68.31544508532154
206.5380155810531,0.01040820766754359,-12.43601979507803,68.27258595169705
207.2526059582576,0.01134197030467022,-12.40082544011,68.19288065794788
207.9696687103698,0.01184837731129539,-12.37534250030583,68.10429927905307
208.6892123914338,0.01104064079186344,-12.35484851424622,68.05603027451725
209.4112455850893,0.01079468638010214,-12.32580613630924,67.94178084038982
210.1357769046751,0.0101135315552831,-12.28924567790035,67.88241978138383
210.8628149933291,0.01085120413296955,-12.28237495296401,67.79717786992782
211.5923685240947,0.009620832692513764,-12.22294815482806,67.61765631551272
212.3244462000221,0.009094521806491819,-12.20850767788113,67.5218796893589
213.0590567542727,0.01200815659314695,-12.21677044562027,67.60071433743062
213.7962089502235,0.01136312606745856,-12.13799628466418,67.52586356450816
214.5359115815712,0.009588534166503149,-12.12719769844323,67.52021542117953
215.2781734724374,0.01073233187402519,-12.10705048223647,67.36887124334746
216.0230034774746,0.01085074574397371,-12.07755539320523,67.36039489984098
216.7704104819696,0.01138346314840864,-12.05332308343273,67.28663800216407
217.5204034019524,0.01175734230441565,-12.02943964429944,67.20291802603128
218.2729911843003,0.01192645523034044,-11.99891078383215,67.14972391636611
219.0281828068457,0.01175490372414439,-11.97998697869268,67.02708145021622
219.7859872784827,0.01174258709370268,-11.95095234699949,66.98314278545784
220.5464136392752,0.01002497424851225,-11.92065737381103,66.91057603556864
221.3094709605639,0.01180743844336018,-11.88913158567239,66.83925355430269
222.0751683450758,0.0102113249769664,-11.87421123885317,66.81730876668172
222.8435149270305,0.01126884404189162,-11.84572635058652,66.68874364682989
223.6145198722523,0.01157194750171392,-11.8139337454296,66.63180683241076
224.3881923782768,0.01117548564319071,-11.8029012117378,66.5024582614587
225.1645416744618,0.01212811446974426,-11.776577146049,66.58397497218066
225.9435770220981,0.01248621579560509,-11.72001728609886,66.39828809071737
226.7253077145177,0.01221246383692674,-11.71668218678846,66.38928463935129
227.5097430772071,0.01088320210899148,-11.69644466541256,66.32391445128147
228.296892467918,0.011862826040944,-11.6634483824185,66.17212650223226
229.0867652767774,0.009675818908969375,-11.62294028717437,66.11297489938764
229.8793709264016,0.01107713135582785,-11.59888160338497,66.01388184051413
230.6747188720071,0.01165367339989592,-11.58184463071217,65.93375553881104
231.4728186015243,0.009022843561103184,-11.54908743957308,65.85118019120148
232.273679635711,0.01146624065236717,-11.52538409338018,65.77661649345423
233.0773115282641,0.01256158412745963,-11.50205909698635,65.70849351101842
233.8837238659356,0.01078613241906472,-11.47039132492287,65.6331373320199
234.6929262686467,0.01098402701312973,-11.44592058859466,65.54943442592297
235.5049283896011,0.01078612171661181,-11.41561685939605,65.50200067777158
236.3197399154018,0.01164919486953937,-11.39749642322102,65.35199152637207
237.1373705661657,0.01049996803989018,-11.36212194418908,65.29700452504576
237.9578300956397,0.01075484998403287,-11.33986162921317,65.20952863608795
238.7811282913181,0.01033672363356867,-11.32118250573221,65.17557738102217
239.6072749745569,0.01072416493846978,-11.28992288230922,65.04891107660129
240.4362800006934,0.01049249175068238,-11.26841790848771,65.04347810872359
241.2681532591635,0.01103878903179664,-11.23715268504861,64.92355112927933
242.102904673618,0.009974895337849964,-11.20754128283728,64.88594525113868
242.9405442020424,0.01130181287621028,-11.18383316365914,64.78591120242837
243.7810818368755,0.0121176512348913,-11.15965846250689,64.67588094225724
244.6245276051279,0.0102985617894812,-11.13683355706318,64.60796563784444
