#Digilent WaveForms Impedance Analyzer
#Device Name: Discovery2NI
#Serial Number: SN:210321ABE135
#Date Time: 
#Digilent WaveForms Impedance Analyzer Trace#Trace: Trace
#Start: 1000 Hz
#Stop: 10000 Hz
#Steps: 501
#Order: W1-C1-R-C2-DUT-GND
#Resistor: 100000 O
#Average: 47
#ProbeResistance: 1.04e+06 O
#ProbeCapacitance: 4.3e-11 F
#Compensation:none
#Wavegen: Wavegen1
#Amplitude: 0.2 V
#Offset: 0 V
#Amplification: 1 X
#Settle: 0.01 s
#MinPeriods: 16
#Scale: Logarithmic
#Channel: Channel 1
#Range: 5.51199 V
#Offset: 0.000299138 V
#Attenuation: 1 X
#Channel: Channel 2
#Range: 5.52909 V
#Offset: 6.9788e-05 V
#Attenuation: 1 X

Frequency (Hz),Trace th (deg),Trace |Z| (Ohm),Trace Xp (Ohm)
1000,-9.199109187467492,53351.73522186711,333728.176084755
1004.615790278396,-9.26098284846287,52880.75408860466,328591.168768035
1009.252886076685,-9.350845989348368,52892.22607385767,325531.6436891882
1013.91138573668,-9.381885958299526,52888.1463596973,324439.1908679677
1018.591388054117,-9.402178603668544,52698.56871425987,322584.7674968287
1023.292992280755,-9.565624523347296,52874.88330540761,318183.8311133302
1028.016298126474,-9.542272847158509,52779.85133098432,318381.9878943991
1032.761405761398,-9.665280572010724,53316.05960651267,317561.5620006066
1037.528415818013,-9.702303048208318,52753.50881396679,313023.3291840092
1042.317429393305,-9.738496474259984,52920.66613830707,312859.3403819547
1047.1285480509,-9.864438552316606,52754.2156193848,307932.178441361
1051.961873823223,-9.899083085641397,52890.79446280903,307659.6376052627
1056.817509213659,-9.979872571891805,52598.8560187377,303509.429102504
1061.695557198725,-9.8620638772585,52744.4187898572,307948.3923024433
1066.596121230258,-10.01404959049808,52737.77258810067,303282.9724887484
1071.519305237607,-10.07110272283244,52609.74531657046,300850.3177372443
1076.465213629835,-9.992274566254785,52746.23339319335,303985.9075980223
1081.433951297939,-10.12133017013688,52763.64113077796,300248.5198581296
1086.425623617066,-10.10192242940738,52560.30185290394,299660.0578348202
1091.440336448757,-10.17426932893837,52625.35627225301,297919.7319012197
1096.478196143186,-10.17664686632552,52705.63938272832,298305.2522827153
1101.539309541416,-10.10814244091661,52833.11612660239,301032.0168074772
1106.623783977667,-10.26483596714567,52730.03169738917,295906.4077224231
1111.731727281592,-10.28348854060765,52715.3384403429,295293.1351228511
1116.863247780562,-10.28853968711776,52591.02715734205,294453.7110243979
1122.018454301964,-10.5380292062023,52628.50662238105,287763.4189194401
1127.197456175511,-10.33070242452694,52654.11109240508,293616.7043911662
1132.400363235558,-10.62567707705486,52760.58123975658,286132.9596494701
1137.627285823432,-10.50309456458903,52576.76486489701,288425.9129632197
1142.878334789772,-10.73833257696624,52459.48444514168,281549.8413301412
1148.153621496883,-10.67109361410937,52732.99534294456,284780.2162823314
1153.453257821093,-10.57652920498456,52648.67670929449,286837.6708774357
1158.777356155127,-10.88089794525366,52570.95599827837,278494.983650412
1164.126029410492,-10.84586473683031,52385.33017546727,278397.235087609
1169.499391019872,-10.86421829752193,52328.14562953643,277629.1632060371
1174.89755493953,-10.90867636766514,52452.71919300976,277169.5820838307
1180.32063565173,-10.95967776867235,52531.84230049188,276311.5983959413
1185.768748167161,-11.00494997218108,52418.19659340934,274593.4986070849
1191.242008027375,-10.96651677114645,52515.16324456899,276053.7148639378
1196.740531307244,-11.07277027334446,52359.18332442663,272625.1505049904
1202.264434617413,-11.12975063329895,52531.06579409555,272137.3094562977
1207.813835106781,-11.20821726550001,52488.98604369749,270039.7493172878
1213.388850464978,-11.28372579759025,52444.28286867235,268027.4187831054
1218.989598924867,-11.24528759090705,52465.44727169976,269040.2552849374
1224.616199265049,-11.41151253439633,52293.9475361361,264305.3323199991
1230.268770812382,-11.34674859957644,52307.31783540345,265861.9246312896
1235.947433444511,-11.44387339462201,52389.79272771698,264050.9271925571
1241.652307592411,-11.3645697627488,52489.80997634346,266376.602226487
1247.383514242944,-11.50144978271434,52315.55847748038,262374.4532417677
1253.141174941416,-11.54897637370535,52278.86272286208,261126.0064952576
1258.925411794168,-11.63734803915281,52338.23419233072,259464.4331376932
1264.736347471152,-11.71906298308624,52342.45469376292,257701.0495194416
1270.574105208542,-11.7384076922559,52313.60297619492,257140.4894006678
1276.438808811345,-11.80477588846305,52252.42993635808,255416.1283760542
1282.330582656022,-11.8862840339206,52328.8710752107,254060.7247655566
1288.249551693135,-11.82380276640209,52212.44185416947,254815.7930716399
1294.195841449987,-11.95837381719303,52237.25375769234,252109.0835814711
1300.169578033291,-12.0875009481639,52180.4099643201,249183.8611797535
1306.170888131842,-12.0589282885295,52143.74358955521,249590.0010985315
1312.199899019204,-12.17709335175732,52208.04083170029,247508.8786762467
1318.256738556408,-12.21474822919015,52320.4603701325,247288.7570797323
1324.341535194665,-12.19673568418868,52162.76779252079,246902.0097490324
1330.454417978092,-12.26662943385979,52057.00119000523,245018.753346491
1336.595516546443,-12.27834879914221,52179.54937807293,245364.7354574189
1342.764961137864,-12.41591132093274,52178.39600035128,242682.8255628661
1348.962882591655,-12.46428899704448,52145.73671648408,241604.4009118293
1355.189412351037,-12.46056180319151,52123.04919294519,241570.3779802562
1361.444682465951,-12.56304976096244,52075.02503650826,239410.1857676482
1367.72882559585,-12.71154181540224,52251.41267224891,237460.3170386465
1374.041975012516,-12.59205688495178,52089.51594748108,238934.026275075
1380.384264602885,-12.69068002618618,52051.61246770356,236934.7753993286
1386.755828871889,-12.73830646470341,52040.89589452188,236014.8757112934
1393.156802945304,-12.74405974953244,52066.58613431283,236026.5470724451
1399.587322572619,-12.80372716184213,51819.27595037447,233828.9076865608
1406.047524129915,-12.92618648883621,51934.86811361318,232167.5910665775
1412.537544622755,-12.95791940682637,51950.43215037286,231678.131534072
1419.057521689093,-12.99064852041805,51918.56583898831,230962.6727187437
1425.607593602189,-13.05864385205989,51976.50247374566,230037.217319096
1432.187899273544,-13.15462484614069,51851.73655847289,227839.8251433038
1438.798578255846,-13.2015885371449,51907.79725213331,227289.0929065882
1445.439770745928,-13.31708001646061,51857.51083180715,225134.7928939501
1452.111617587743,-13.31751182157263,51852.37841020431,225105.3438382509
1458.814260275349,-13.38107610463541,51860.83331102759,224091.9310787498
1465.547840955913,-13.48093994739197,51849.94317769519,222415.5999293726
1472.31250243272,-13.49664392718633,51839.52240175803,222116.9551203052
1479.108388168208,-13.48582123929455,51826.00420199466,222233.9341535474
1485.935642287007,-13.65486559117387,51836.47296353595,219578.3927646025
1492.794409578997,-13.65553267658061,51721.4970329239,219080.8573259219
1499.684835502374,-13.61694513693574,51761.08176254552,219858.0417682325
1506.607066186742,-13.76307010433961,51718.19912768993,217387.878495947
1513.561248436209,-13.80975456192613,51672.68990054759,216476.5482136296
1520.547529732496,-13.90968511557656,51679.0533415688,214978.144913196
1527.566058238073,-14.06020021322889,51618.93683032579,212474.9837856112
1534.616982799295,-14.08797364750878,51538.49692621492,211734.0864088534
1541.70045294956,-14.04785470281086,51634.93157684622,212723.8436436095
1548.816618912482,-14.12649014511544,51598.32522935451,211413.6160820049
1555.965631605075,-14.21237661988142,51617.16440363717,210238.8347061332
1563.147642640955,-14.30954565155226,51600.19291112177,208772.0460733127
1570.362804333553,-14.38848702548643,51592.39066306036,207619.2179819528
1577.611269699349,-14.34991576552028,51516.98337280173,207861.2606612661
1584.893192461114,-14.51485591189557,51507.75109961799,205512.2738392068
1592.208727051171,-14.48640996453295,51486.70303560713,205823.0209256398
1599.55802861467,-14.64499893861114,51621.13836173719,204173.8772494239
1606.941253012878,-14.61853854883693,51454.52007172026,203875.1858278199
1614.358556826487,-14.67984631013782,51469.75037950838,203102.4335148434
1621.810097358931,-14.73777198012365,51390.13394927553,202008.7721292354
1629.296032639723,-14.80556126332821,51398.12473798623,201135.6555369888
1636.816521427809,-14.94682397118816,51341.39644311709,199057.485038748
1644.371723214932,-14.97079988367887,51356.06509275606,198802.7461786206
1651.961798229016,-14.99036571316343,51344.33417150433,198503.8464306863
1659.586907437561,-15.09025837614729,51317.11691995114,197115.4933909523
1667.247212551064,-15.0197033770842,51260.18434547435,197800.2964044333
1674.942876026438,-15.1682992226768,51257.59781322532,195897.4848772159
1682.674061070468,-15.25720393376491,51320.04817495251,195020.1681065987
1690.440931643265,-15.33728210905813,51220.49637945994,193649.8106092431
1698.243652461745,-15.41811095452196,51184.36896986121,192523.1519911527
1706.082389003124,-15.42991126234136,51179.38621615526,192360.7610192827
1713.957307508426,-15.5186184045822,51111.24840845043,191033.3119524138
1721.868574986008,-15.58772274574107,51099.84620410662,190164.839612031
1729.816359215102,-15.65276321653868,51100.43820788842,189396.4936322827
1737.800828749376,-15.70328387629509,51095.50212155827,188784.1893099217
1745.822152920505,-15.78948958491373,51050.32781455188,187613.479092297
1753.880501841762,-15.84955977032135,51070.8034790048,186995.5189384884
1761.97604641163,-15.95183994444752,51009.16919412174,185603.1181267546
1770.108958317422,-16.0723619508055,50949.77183081098,184033.0770657423
1778.279410038924,-16.09088874628281,50916.64259126688,183707.2445832454
1786.487574852051,-16.14462768878424,50930.4694515603,183161.6723109379
1794.733626832527,-16.15730263234588,50952.1070329619,183099.5678132855
1803.017740859569,-16.27996489552596,50916.72186537894,181630.6774193876
1811.340092619603,-16.28386854218484,50898.59522976501,181523.6678717085
1819.700858609984,-16.46709528373479,50881.4496596049,179498.3936001765
1828.100216142743,-16.52065003726948,50819.31640149676,178714.1523117983
1836.538343348347,-16.56007209887871,50857.30268552441,178433.8610085213
1845.015419179474,-16.64142195035013,50782.77141566658,177325.8409457651
1853.531623414812,-16.74535523376094,50732.28109590701,176081.2179648739
1862.087136662868,-16.76699894681482,50748.87305081062,175917.9513391801
1870.682140365801,-16.82320485770674,50729.31053101734,175279.5250620404
1879.316816803269,-16.93259228714511,50649.15113579267,173904.8006761328
1887.991349096294,-17.02295288901957,50672.06472582858,173087.0617343149
1896.705921211147,-17.02720004182756,50657.87067574214,172996.6933892672
1905.460717963248,-17.13632945133432,50640.59603697274,171869.103011343
1914.255925021086,-17.14591584097678,50546.74910597177,171457.5588942741
1923.091728910159,-17.24486275408969,50522.6812137533,170422.2231968402
1931.968317016925,-17.22113144998856,50396.25926780397,170222.9271026671
1940.885877592779,-17.42037789002744,50450.69965299237,168517.1779885854
1949.844599758046,-17.4928279535203,50401.16873689797,167676.1365390438
1958.844673505991,-17.58015760151754,50433.85410774746,166977.5288352876
1967.886289706845,-17.62513244576487,50522.74819520555,166858.5040007416
1976.969640111861,-17.71285474917817,50335.59638532608,165443.3111713631
1986.094917357372,-17.73727175341604,50333.20676462026,165215.0266927389
1995.26231496888,-17.81796687171397,50251.83538016744,164224.9796540172
2004.472027365162,-17.86041469521748,50295.24726325322,163988.9008233662
2013.724249862389,-17.90903328546556,50212.28351920441,163288.4514164004
2023.019178678272,-18.07744063126229,50221.80723274597,161848.0780284917
2032.357010936222,-18.05031920304815,50169.17954203128,161913.2972759131
2041.73794466953,-18.23427727015919,50120.16023851027,160177.8528214863
2051.162178825566,-18.25431323438867,50156.85345028232,160125.1634073534
2060.629913270001,-18.3154601530029,50129.75175508023,159522.5792575153
2070.141348791043,-18.42070778881558,50102.51428357425,158556.2954310091
2079.696687103697,-18.51044662906138,50032.73198047725,157594.5475608339
2089.29613085404,-18.5872113222856,49982.10975964648,156807.7231987746
2098.939883623525,-18.60776086009136,50015.60556550101,156745.6472583261
2108.62814993329,-18.72016220364377,49911.7986113554,155514.4895155197
2118.361135248503,-18.87310854187624,49915.73931611755,154311.7553864895
2128.139045982713,-18.89027835556354,49839.29240665252,153940.4857203151
2137.962089502233,-18.95738762703132,49862.14088625374,153485.7948769656
2147.830474130535,-18.97612851809475,49857.31638073573,153324.9502587187
2157.744409152667,-19.09340102478944,49794.08712438633,152224.7246998482
2167.704104819696,-19.08842422053066,49798.69387905976,152277.0201245377
2177.70977235316,-19.25317507377918,49696.4201651913,150712.6031645749
2187.761623949553,-19.3516537623405,49645.93275881726,149822.4452140357
2197.859872784826,-19.44503715272087,49630.97011143414,149085.6275903899
2208.0047330189,-19.48791597264379,49609.31914875285,148705.4050076385
2218.196419800219,-19.63742747089953,49518.26588437448,147346.4620211202
2228.435149270304,-19.72953109758722,49508.28526247101,146656.2520646882
2238.72113856834,-19.75173395835871,49499.46302681401,146471.8625725404
2249.054605835782,-19.83494221395818,49539.46276100635,145999.8834507478
2259.435770220978,-19.8684606776697,49470.74526846513,145561.314284669
2269.864851883822,-20.01202854288484,49323.7411703434,144129.8406910425
2280.342072000419,-20.08669274450909,49416.51531238314,143886.2351712839
2290.867652767774,-20.10682839534047,49274.7113320427,143335.6032999645
2301.441817408509,-20.23440841926417,49336.47407478082,142647.9672112248
2312.064790175595,-20.28346180910786,49230.54281539983,142011.8969883822
2322.736796357107,-20.53324571025816,49264.15705669914,140453.4322996266
2333.458062281004,-20.46215741008173,49185.51662167649,140695.4032846839
2344.228815319923,-20.5674921320775,49151.859932427,139910.022290328
2355.04928389601,-20.58548109586225,49132.84509903026,139738.9791271879
2365.919697485759,-20.71161911019244,49071.13996088095,138750.5244427748
2376.840286624877,-20.77145018091794,49030.33129764245,138253.3793258002
2387.811282913178,-20.862395008509,49007.54176409633,137613.4017350803
2398.832919019491,-20.99899783997268,48946.36593342877,136587.5390776558
2409.905428686596,-21.03040383441122,48919.03169595587,136316.6186009011
2421.029046736179,-21.10969492348184,48904.0128024085,135786.1423269121
2432.204009073816,-21.16692583756261,48835.01522370862,135244.7104660909
2443.430552693972,-21.25533636255718,48782.72115500284,134563.802554932
2454.708915685031,-21.36503250617032,48745.96534694408,133804.0864107365
2466.03933723434,-21.45295456230317,48723.73912338888,133220.649113422
2477.422057633286,-21.51940286897026,48684.20455749579,132720.9462012471
2488.857318282392,-21.61310624041652,48643.00961263068,132061.0736290115
2500.345361696432,-21.71551001053534,48672.11171317199,131546.8662830054
2511.886431509581,-21.80975543175431,48565.7417427638,130719.6600743136
2523.480772480575,-21.85775521876829,48521.34740185516,130327.3733923817
2535.128630497908,-21.96104137393353,48484.85305629438,129646.9425061972
2546.830252585042,-22.00387063616786,48446.94990591316,129305.9215533306
2558.585886905646,-22.11276352636148,48390.08946208302,128549.8116171099
2570.395782768864,-22.21966374351231,48339.57001665244,127828.853191292
2582.260190634597,-22.28063853377727,48314.85621532737,127431.5859805752
2594.179362118814,-22.34874885829865,48263.17220414776,126927.1090444945
2606.153549998896,-22.47645289571795,48221.81143343458,126134.8249619585
2618.183008218985,-22.54657910337665,48180.0368513205,125653.9297083184
2630.267991895382,-22.63502198301528,48121.42901128269,125036.3346870687
2642.408757321947,-22.72769602434338,48077.82026729522,124440.4784692216
2654.60556197554,-22.83365055537849,48056.00127625476,123837.4993496902
2666.85866452148,-22.90724844899414,47996.03359911568,123306.8896510537
2679.168324819032,-23.00001854801684,47961.09541282942,122746.9616279762
2691.534803926916,-23.0718164315922,47931.4477886497,122310.1041726511
2703.958364108844,-23.1640974587064,47879.6985397223,121717.9736474778
2716.439268839083,-23.23775363335843,47819.55020754962,121201.007211343
2728.977782808041,-23.33103883029043,47775.58222791929,120632.3124523179
2741.574171927883,-23.42079854648356,47697.48697300711,119999.4100423502
2754.228703338167,-23.51202054230189,47702.02620212741,119571.4942599006
2766.941645411512,-23.57955839677849,47654.5413355351,119129.7793564625
2779.713267759289,-23.7210800245731,47572.82295580357,118256.6239759243
2792.543841237338,-23.80145023609686,47547.13057136022,117816.7668139937
2805.433637951714,-23.88818935469292,47505.7631031041,117311.760059846
2818.382931264454,-23.95305188474618,47457.25203890634,116893.2532316922
2831.391995799379,-24.04560159499907,47378.6911175119,116277.1122390301
2844.461107447916,-24.16509512719028,47345.64798406934,115655.669550903
2857.590543374947,-24.22746950893406,47296.55940029855,115256.1805724083
2870.780582024691,-24.32698506766988,47234.95366322024,114663.6524518644
2884.031503126606,-24.40721929050505,47227.10857197637,114290.7000768553
2897.343587701324,-24.53132026254063,47120.83268452824,113492.0498988012
2910.717118066606,-24.59117166007669,47096.4528083838,113174.3519902751
2924.152377843336,-24.68742538586768,47034.34208801639,112611.8800092952
2937.649651961531,-24.78383698841355,46992.25476431284,112100.9183891155
2951.209226666386,-24.79547007498888,47026.34868387845,112132.9435953414
2964.831389524343,-25.01532596740687,46850.06814368255,110793.1549732771
2978.51642942919,-24.99095304840294,46848.57767513179,110890.7293871658
2992.264636608189,-25.16874970505125,46761.56308496063,109953.2883795378
3006.076302628232,-25.23196274599966,46763.43923747457,109700.2012372656
3019.951720402017,-25.36012364479286,46685.04824975203,108999.2016575667
3033.891184194271,-25.41801184987126,46648.97889517443,108683.3739741804
3047.894989627984,-25.51308757643872,46546.47689264561,108067.3604833139
3061.963433690678,-25.60554502702609,46516.7487508585,107634.5492140283
3076.096814740708,-25.68589088225418,46460.30793186936,107190.4072802111
3090.295432513591,-25.7977985238881,46388.85397739837,106592.8915501405
3104.559588128357,-25.86140087915276,46306.81460292813,106160.646245869
3118.889584093938,-26.00145395859501,46274.91699901981,105555.5545307132
3133.285724315586,-26.04814697533381,46241.69264806849,105303.8632958165
3147.748314101317,-26.14106942089415,46205.33816586146,104873.2323875402
3162.27766016838,-26.3094052129546,46107.89503376791,104029.7532156357
3176.874070649772,-26.35764023312932,46072.68766468294,103773.6619469772
3191.537855100762,-26.47291621737649,45997.95466018911,103186.5467026442
3206.269324505466,-26.5278358408014,45962.04532588983,102907.963081553
3221.068791283436,-26.65061382759085,45897.18849344619,102323.7373569658
3235.936569296283,-26.75836465639698,45859.89812359155,101859.094361559
3250.872973854345,-26.74390280532012,45844.06624476707,101874.9305241528
3265.878321723359,-26.87596131169233,45729.93110374596,101158.8711791203
3280.952931131191,-27.04838205835412,45675.39309098208,100442.2729010393
3296.097121774579,-27.08691156495351,45618.59551463449,100185.4468859165
3311.311214825912,-27.22535174360351,45553.10559417402,99571.49630296005
3326.595532940046,-27.28627177411546,45492.53766424521,99234.08180058238
3341.950400261143,-27.4007641146203,45457.00235812903,98774.12889146048
3357.376142429548,-27.51617025590622,45369.35042048193,98202.28446150584
3372.87308658869,-27.57839970585774,45290.01527621208,97826.65617471066
3388.441561392026,-27.67349726996565,45258.49933788703,97449.04666232529
