#Digilent WaveForms Network Analyzer - Bode
#Device Name: Discovery2NI
#Serial Number: SN:210321ABE135
#Date Time: 2021-11-09 16:43:54.038
#Start: 100 Hz
#Stop: 5e+06 Hz
#Steps: 1001
#Wavegen: Wavegen C1
#Amplification: 1 X
#Settle: 10 ms
#MinPeriods: 16 
#Channel: Channel 1
#Range: 5.51199 V
#Offset: 0.000299138 V
#Relative: no
#Channel: Channel 2
#Range: 5.52909 V
#Offset: 6.9788e-05 V
#Relative: yes
#Power Supplies: ON
#Positive Supply: ON
#Voltage: 5 V
#Negative Supply: ON
#Voltage: -5 V

Frequency (Hz),Channel 1 Magnitude (dB),Channel 2 Magnitude (dB),Channel 2 Phase (deg)
100,-20.83264514495559,6.268980466420778,-0.01098798583808502
101.0878523765327,-20.83076964080305,6.26632400083931,-0.008950097099045706
102.1875389809967,-20.83889482080058,6.268743162405084,0.007937418837911991
103.299188552322,-20.83302108292954,6.269352054585146,-0.01569882032985959
104.4229312299275,-20.83934133992461,6.269188668233356,0.005126481538155758
105.5588985689574,-20.84006178623391,6.269982276339935,0.0002687959617588831
106.7072235556815,-20.83977825381051,6.269405921016958,-0.004410167032574464
107.8680406230641,-20.83468145439565,6.26923719764322,-0.01414987085102837
109.0414856665016,-20.83502325560243,6.267413464997823,-0.004775753074788724
110.2276960597312,-20.83230633286013,6.26762005852218,-0.01316944788823093
111.4268106709143,-20.83882957756212,6.270691827836763,-0.01681994623579897
112.6389698788924,-20.83722101467608,6.269976698176521,-0.01340046055626942
113.8643155896222,-20.83218830584892,6.267015005908995,-0.01062853219445969
115.1029912527866,-20.8394568897995,6.270621975859272,0.007838642274322183
116.3551418785903,-20.83391332402883,6.26865790567399,-0.01939077508103537
117.6209140547345,-20.83675535509088,6.26840610481628,-0.004689061243141168
118.9004559635785,-20.8367748382767,6.268283530235634,-0.001106861456875663
120.1939173994868,-20.83453900678108,6.267386909136921,-0.007226440552358326
121.5014497863648,-20.83304926658848,6.266836965984874,-0.01064992539335208
122.8232061953875,-20.83547036320407,6.267300083348944,-0.00936345944555228
124.1593413629177,-20.83573091321018,6.269365381905716,0.004438052483294541
125.5100117086216,-20.83749638932975,6.269909075563138,-0.008498271876003827
126.8753753537806,-20.83736437959038,6.270319696723431,-0.006892651417757634
128.2555921398015,-20.83607848276217,6.268862037182855,0.000191053527942131
129.6508236469304,-20.83412823391072,6.266946428108305,-0.004849388268468147
131.0612332131678,-20.83746471026219,6.270147574756615,-0.00432039586503663
132.4869859533906,-20.83504141380607,6.267807155067723,-0.008343737148976516
133.9282487786811,-20.83699148216868,6.2697182354569,-0.008279473960769224
135.3851904158687,-20.83544359307286,6.268611190707727,-0.008699343381778135
136.8579814272811,-20.83549041360886,6.268187940475805,0.0006363816310255288
138.3467942307124,-20.83600398037269,6.268472175891424,-0.01727445384256043
139.8518031196084,-20.8338765114451,6.267710138005469,-0.002927557720880714
141.3731842834689,-20.83545016831593,6.268343629203813,-0.02085794044594991
142.9111158284766,-20.83614097519729,6.267978903235235,-0.01130444709460221
144.4657777983461,-20.83554447055999,6.268244620958173,-0.01486463536338078
146.0373521954019,-20.83410890586668,6.266899986181732,-0.007096638535642796
147.6260230018853,-20.83345486084503,6.26603148680057,-0.002649356636183597
149.2319762014921,-20.83577908458522,6.268403634771397,-0.003251016676294682
150.8553998011467,-20.83538996386653,6.267706408252441,-0.007678121658500459
152.4964838530115,-20.83580146253873,6.26876474197514,-0.0233212269868659
154.1554204767356,-20.83383619623016,6.266883485938014,0.005169617201673304
155.8324038819458,-20.83332728196835,6.266492066317565,-0.02328980979797279
157.5276303909836,-20.83499849933299,6.268088845964451,-0.02040891669034295
159.2412984618876,-20.83603761335187,6.268074842856136,-0.009661935579501346
160.9736087116268,-20.83468535379241,6.267759952484301,-0.01601668452876481
162.724763939587,-20.83461772127761,6.267088997788909,-0.007091577056904441
164.4949691513111,-20.83476562151949,6.266924645966392,-0.0004458151514938891
166.2844315825004,-20.83395736408993,6.266967231732102,-0.01784762363872261
168.0933607232746,-20.83528350961129,6.268288399656131,-0.01535002060867896
169.9219683426964,-20.83520800751377,6.267322287548343,-0.01176268777956579
171.7704685135639,-20.83551758431403,6.268096303285567,-0.01441035776022659
173.6390776374701,-20.83661010621405,6.268875282605641,0.006118447154626949
175.5280144701389,-20.83496740889538,6.267854932108589,0.001550666277466917
177.437500147033,-20.83380382239249,6.267846452694553,-0.01098836147798465
179.3677582092427,-20.8353284147028,6.268045231684651,-0.006788527819125534
181.3190146296558,-20.83444654426078,6.267662740594332,-0.005710365998979228
183.2914978394102,-20.83550072322377,6.267981306700109,-0.002644228169771168
185.2854387546386,-20.83679857354242,6.270113118385849,-0.0136327901400648
187.3010708035001,-20.83524948315663,6.269779289016737,-0.01704486020798868
189.3386299535072,-20.83648111487265,6.26950830682055,-0.006361226082304938
191.3983547391513,-20.83635254865516,6.269172648876284,-0.00850054497892927
193.4804862898253,-20.83453416938631,6.268630191622536,-0.02963833935052662
195.5852683580566,-20.83432065950461,6.267581465947133,-0.001340499204800949
197.7129473480376,-20.83613492315678,6.270086709213814,-0.02103623550966205
199.8637723444765,-20.8356674966431,6.269154031464642,-0.009664175552323684
202.0379951417535,-20.8337441655173,6.267743224467377,-0.02269596722291567
204.2358702734025,-20.83433783920822,6.266715727042927,-0.003870765642943752
206.457655041904,-20.83690187122259,6.269004958782359,-0.02073289140108159
208.703609548811,-20.83669941374888,6.267975772250073,-0.003672963017152142
210.9739967251974,-20.8378536804328,6.26907728773015,-0.01364334433429804
213.269082362439,-20.83487068716299,6.266886417452736,-0.01355419670932179
215.5891351433283,-20.83513929362588,6.268943298423205,-0.006347920052252931
217.9344266735313,-20.83513571527185,6.269521773811753,-0.00706820421648402
220.3052315133823,-20.83756507167752,6.270115050596314,-0.01044625937075239
222.7018272100265,-20.8351743849097,6.269277302960967,-0.01740564318138205
225.1244943299126,-20.83661235797566,6.269888295541931,-0.01752554332567513
227.5735164916382,-20.83700779246789,6.269167674274937,-0.005723569437805054
230.0491803991516,-20.83734701008111,6.269112919613271,-0.01335767768892993
232.5517758753178,-20.83874770969408,6.27049378722335,-0.003926148099495208
235.0815958958465,-20.83681731691766,6.268468893183467,-0.003022230488724631
237.6389366235905,-20.83441795960869,6.267957522875975,-0.01796393936902518
240.2240974432178,-20.83483048322989,6.267413601518341,-0.01855174485361033
242.8373809962582,-20.83456063459959,6.266723946820183,-0.003486054472176647
245.4790932165358,-20.83574607802267,6.270265740625259,-0.01259621782375575
248.1495433659828,-20.83572473018752,6.268859653472482,-0.01731356963800934
250.8490440708448,-20.83444728438083,6.266849216236647,-0.01906094885401965
253.5779113582796,-20.83622594710864,6.269353124657187,-0.02254585541128051
256.3364646933526,-20.83566459294108,6.26786458307036,-0.01621869232586626
259.1250270164392,-20.83606603796652,6.268480456328135,-0.02172521841066555
261.9439247810286,-20.83362015445307,6.267728672695339,-0.009955687841369354
264.7934879919427,-20.83344391850936,6.266120966561019,-0.0118254819657011
267.6740502439669,-20.83546647117093,6.267577118921148,-0.01223758505209105
270.5859487609073,-20.83680798292412,6.270494848151794,-0.01990847303389387
273.5295244350664,-20.83488534525397,6.26888086007917,-0.02805366492472672
276.505121867152,-20.83447567681527,6.267610960943772,-0.01726115287011964
279.513089406619,-20.83623013040048,6.268549822641599,-0.03438745456119818
282.5537791924489,-20.83535034157036,6.267851024264001,-0.01551205905401609
285.627547194377,-20.83381396908476,6.266922033715444,-0.02560863078505804
288.7347532545631,-20.83466911851554,6.267118189105458,-0.02703499960043132
291.8757611297188,-20.83458579898728,6.268394543071702,-0.02413248464931428
295.050938533692,-20.83623312998306,6.268916756773768,-0.01414604269363906
298.2606571805129,-20.83541028517741,6.268114699192809,-0.01902701823670494
301.5052928279132,-20.83535437671138,6.268537484541415,-0.016512128121974
304.7852253213136,-20.83555846235623,6.268910666122345,-0.01829121712589199
308.1008386382927,-20.83592683649468,6.267954053274071,-0.01753615780023665
311.4525209335367,-20.83707219928827,6.269174690223974,-0.01571951663962068
314.8406645842832,-20.83676369650468,6.269393871759627,-0.01944957007029302
318.2656662362547,-20.83753700260178,6.269394340865158,-0.01391182652911027
321.7279268500935,-20.83482849491858,6.267671325541561,-0.01321764216828569
325.2278517483023,-20.83411471784477,6.267585768470136,-0.004717149364168449
328.7658506626926,-20.83329544032712,6.26693469420982,-0.007246105593722518
332.3423377823547,-20.83465408818699,6.268383658376381,-0.02269199067657723
335.9577318021445,-20.83527453510813,6.267507478223728,-0.02364192853595171
339.6124559716995,-20.83674802320336,6.2692026960239,-0.01869783489615884
343.3069381449895,-20.83513934143735,6.267643989486775,-0.01512055385742883
347.0416108304015,-20.83456331718783,6.267846626278017,-0.006113728117284722
350.8169112413774,-20.83401030582985,6.266334472659847,-0.00386276662908358
354.6332813475954,-20.83370150867257,6.26732810095271,-0.002933930296791232
358.4911679267119,-20.83589054249305,6.269454246742335,-0.01667318584784994
362.3910226166626,-20.83718062943585,6.269512996328309,-0.01159242708822461
366.3333019685392,-20.83519946975677,6.267627655351538,-0.0146968288917968
370.3184675000347,-20.8372068064887,6.269964379469006,-0.02708242599029909
374.3469857494733,-20.83650038708495,6.269082526744825,-0.02687304163308113
378.4193283304284,-20.83301290221173,6.266000938251829,-0.01706848975506148
382.5359719869301,-20.83430049104674,6.267731880282352,-0.01281055010856491
386.6973986492825,-20.83283104050474,6.265626940104065,-0.03144072957044841
390.9040954904789,-20.83630495064661,6.269156980698622,-0.02699366489447641
395.1565549832358,-20.83491526306384,6.267556567772713,-0.01968948369615475
399.4552749576466,-20.83327319062949,6.26644388553451,-0.01498074038221375
403.8007586594587,-20.83462578784897,6.267655196974447,-0.01624687637308853
408.1935148089927,-20.83436082906645,6.266598590907796,-0.009485667411468057
412.6340576606948,-20.83584322817579,6.26840873684856,-0.02914547868897444
417.12290706334,-20.83467938271117,6.268111165624061,-0.01497086332685171
421.6605885208918,-20.83659560344955,6.268835787010935,-0.01856707684653713
426.2476332540182,-20.83777842306064,6.269982927921652,-0.01337727376071385
430.8845782622865,-20.83684855009581,6.268500255360914,-0.01082265647127656
435.5719663870258,-20.83562173292448,6.267538690823392,-0.01830980455086717
440.3103463748782,-20.83559118713509,6.267118316492681,-0.01565895305236609
445.1002729420368,-20.83574455577711,6.268191434411145,-0.02365714226482396
449.9423068391904,-20.8366424279966,6.27009376056583,-0.02661644416762954
454.8370149171666,-20.83506533713449,6.26685209899097,-0.03341159432611107
459.7849701932935,-20.83506497772725,6.268841935176113,-0.0300183348236942
464.7867519184824,-20.8374558219673,6.270255499931513,-0.02506719330600049
469.8429456450369,-20.83650992652987,6.267607423840515,-0.03018397504654047
474.9541432952078,-20.83551178668435,6.26759819896669,-0.01037034169650042
480.1209432304853,-20.83655870459829,6.269536513003708,-0.03902894120334821
485.3439503216495,-20.83626396750343,6.268071079460631,-0.02095485995421598
490.6237760195823,-20.83386809404419,6.267684044936591,-0.03033197662038845
495.9610384268459,-20.83587400244593,6.268265380292435,-0.02374919194515179
501.3563623700487,-20.83650799131788,6.268694552775464,-0.01217989601863678
506.8103794729898,-20.83509583564042,6.267794345738621,-0.04039868517145351
512.3237282306012,-20.83652388366066,6.269546421415754,-0.04617605076452946
517.8970540836988,-20.83557267741022,6.267400464140723,-0.02504447091021866
523.5310094945419,-20.83640870751043,6.269947895455346,-0.02241068097361421
529.226254023214,-20.83739009243904,6.270067464784824,-0.03391245914181695
534.9834544048412,-20.83491769388716,6.268529377572526,-0.01472131550912081
540.803284627641,-20.83424241301042,6.266732635394828,-0.03171312048337604
546.6864260118303,-20.83522395976873,6.268655410786889,-0.0207723902265684
552.6335672893819,-20.83800281614756,6.269112333416883,-0.04147761694120788
558.6454046846569,-20.8352385819282,6.26711736750927,-0.04211158261435344
564.7226419959104,-20.83479243731576,6.267888615973129,-0.03252767163868953
570.8659906776813,-20.83657156910935,6.26916830210895,-0.01909442759754398
577.0761699240861,-20.83646479688884,6.269524811249749,-0.02380558006299793
583.3539067530093,-20.83610818864827,6.26917287452144,-0.02198172553408995
589.6999360912189,-20.83446976302198,6.268013955480972,-0.0325157428269307
596.1150008603992,-20.83747285846522,6.269957684996298,-0.03294803773797028
602.599852064127,-20.8359431068872,6.269360463837606,-0.02091682809245299
609.15524887579,-20.83652935057194,6.267619892049302,-0.03335542708603612
615.781958727459,-20.83654263194786,6.268988385027765,-0.0303440382472786
622.4807573997361,-20.83620203767766,6.268946741687328,-0.0284111817955619
629.2524291125679,-20.83824905851898,6.270007975585984,-0.03082943607027744
636.0977666170596,-20.83634509085447,6.268646319876314,-0.03609201058436895
643.0175712882741,-20.83708497962856,6.269502465078429,-0.03555259872589289
650.0126532190574,-20.83466375752634,6.268116270432049,-0.01545897589764422
657.0838313148641,-20.83482287763112,6.267727825134703,-0.01650601550384323
664.2319333896359,-20.83542428736675,6.26818548528775,-0.04367468026907773
671.4577962627043,-20.83069564009737,6.263081700220319,-0.03711733743453038
678.762265856763,-20.83749187670236,6.267395285349532,-0.04006035622633419
686.1461972968924,-20.83464912520359,6.267535059019696,-0.048613627058117
693.6104550106769,-20.83579135419218,6.26703391560107,-0.02619284281546186
701.1559128293893,-20.83823985927115,6.270054713927595,-0.03286746090630288
708.783454090305,-20.8361473897067,6.268651298819234,-0.04875253716474504
716.4939717400963,-20.83580462817257,6.268377430395406,-0.02359466368282881
724.2883684393861,-20.83553933036583,6.26807424349956,-0.03344252008324844
732.1675566684032,-20.83547248246668,6.268069055447895,-0.04288868025221859
740.1324588338236,-20.83817478576714,6.270293217361983,-0.0412455981779658
748.1840073767366,-20.83570539950568,6.268418082900448,-0.04444381758659688
756.3231448818229,-20.83543981485581,6.268457525127684,-0.02167080162547563
764.5508241876868,-20.84042993930423,6.270182934423143,-0.04022232710339324
772.8680084984139,-20.83726304559805,6.269319255169803,-0.05207198582942851
781.2756714963242,-20.83355899294677,6.266911310283882,-0.04773152475848974
789.7747974559707,-20.83751084807128,6.269681932170888,-0.04116116764740241
798.366381359351,-20.8372243801757,6.270323972795088,-0.03820816957377815
807.0514290124086,-20.83595044048274,6.2682488712142,-0.03626625487345336
815.8309571627606,-20.83477598728256,6.267955023329285,-0.05448142087143992
824.7059936187469,-20.83490279731625,6.267691044094327,-0.0425690017855942
833.6775773697354,-20.83494600704698,6.266278010596277,-0.04488846769999277
842.7467587077742,-20.83752837315679,6.269457899073329,-0.04323121085964488
851.9145993505283,-20.83396877377082,6.267633138821803,-0.04593329190213069
861.1821725655932,-20.835553249304,6.267900855357223,-0.05797263998257307
870.550563296124,-20.83592617700225,6.268261850404778,-0.05953697451893447
880.0208682878608,-20.83566837550063,6.268581099105258,-0.05801255994489907
889.5941962175142,-20.83550243996484,6.267569689546497,-0.04630936015478593
899.2716678225644,-20.8373654727045,6.270676872876134,-0.03849595348537349
909.0544160324566,-20.83440584838372,6.266380518169089,-0.04479263568881464
918.9435861012424,-20.83559542405814,6.267334262910275,-0.03027509341519163
928.9403357416398,-20.83366923140492,6.266665246917594,-0.03229090944597601
939.0458352605772,-20.83801237008618,6.269447759630848,-0.04111432075666244
949.2612676961909,-20.83272659279772,6.267156117713154,-0.06487461941619443
959.5878289563295,-20.83203699120373,6.265199927835702,-0.05185889279829325
970.0267279585497,-20.83399121935636,6.266982763638836,-0.03979763401852665
980.5791867716493,-20.8366771679766,6.269594121074653,-0.04447772441381659
991.2464407587311,-20.83499146270912,6.267360880261736,-0.05055031059771409
1002.029738721821,-20.83514340339775,6.267736161135213,-0.05893658683243075
1012.930343048072,-20.8347785814815,6.267011567087405,-0.04121650246622721
1023.949529857541,-20.83457486425462,6.265414840071532,-0.0570070226638677
1035.088589152593,-20.83477422585233,6.267268649658341,-0.06657571566830711
1046.348824968909,-20.8348467882683,6.268743694893459,-0.05593245476927677
1057.731555528155,-20.83747915470506,6.269932734325932,-0.07005692143495423
1069.238113392306,-20.83804501994851,6.270634600070531,-0.07164958610695316
1080.869845619638,-20.83197146100245,6.266082086589516,-0.05043687491588855
1092.628113922437,-20.8350705265622,6.267221640567991,-0.05554606100686499
1104.514294826407,-20.83679939241676,6.268929746702138,-0.06387962285603521
1116.529779831821,-20.83580819865144,6.267327821101926,-0.04714517866156598
1128.675975576417,-20.83751786972581,6.269475841958609,-0.05741327051494238
1140.954304000079,-20.83267919586463,6.265581528809777,-0.04774288562720841
1153.366202511297,-20.83557208399402,6.268242484676892,-0.0789886559016395
1165.913124155442,-20.8357119234445,6.268357099759697,-0.06874523573354452
1178.596537784875,-20.83387809093665,6.2670686547989,-0.0772471393773202
1191.4179282309,-20.83226684308996,6.266396490040476,-0.06039458769301653
1204.378796477597,-20.83468412183976,6.267804430949585,-0.06607859323209642
1217.480659837536,-20.83766014114561,6.269386947391691,-0.04504428073352074
1230.725052129405,-20.8325386131515,6.265588599370791,-0.0479030970456904
1244.113523857579,-20.83581327053802,6.268060921923356,-0.07327556574250593
1257.647642393629,-20.835165244875,6.267503757709835,-0.055995645681719
1271.328992159817,-20.83658901640108,6.267635268154629,-0.07980569438652196
1285.159174814577,-20.83677673883239,6.268317204367668,-0.06685071814609955
1299.139809440026,-20.83306354809509,6.266501872926296,-0.08109988386331679
1313.272532731503,-20.83509022441398,6.266418352705115,-0.06347987873982675
1327.558999189174,-20.83543773986092,6.268022758460321,-0.05630917664967683
1342.000881311729,-20.83323933682257,6.26555132733852,-0.07060229182386024
1356.599869792169,-20.83402709681133,6.265844709145171,-0.05088759060078019
1371.357673715744,-20.83297217129329,6.266744266423158,-0.05560250807175748
1386.276020760024,-20.83714074268245,6.27023949111164,-0.08930696984535302
1401.356657397165,-20.83738354088478,6.270026687482883,-0.07280312803337097
1416.601349098361,-20.8391411135649,6.268993767671125,-0.08008809252390847
1432.011880540522,-20.83498856646422,6.26745708256386,-0.06169074701945476
1447.590055815215,-20.83852373201758,6.271021048853211,-0.08665910896688445
1463.337698639852,-20.83727582671468,6.269161267869611,-0.07955746659278162
1479.256652571206,-20.83467494692423,6.268764736910804,-0.07757858597554446
1495.348781221221,-20.83349256902439,6.266572145296699,-0.06081518339528458
1511.615968475189,-20.83224837590018,6.266349965809036,-0.08670368915858262
1528.060118712296,-20.84169229329802,6.271690066209297,-0.08441826407297981
1544.683157028556,-20.83840023165552,6.270588357948825,-0.06805231264232248
1561.487029462194,-20.83782263601747,6.270499172258623,-0.08151939937613406
1578.473703221448,-20.83363035275342,6.265854779094187,-0.05259276254648171
