#Digilent WaveForms Network Analyzer - Bode
#Device Name: Discovery2NI
#Serial Number: SN:210321ABE135
#Date Time: 2021-11-06 16:35:13.751
#Start: 100 Hz
#Stop: 5e+06 Hz
#Steps: 5001
#Wavegen: Wavegen C1
#Amplification: 1 X
#Settle: 10 ms
#MinPeriods: 16 
#Channel: Channel 1
#Range: 5.51199 V
#Offset: 0.000299138 V
#Relative: no
#Channel: Channel 2
#Range: 5.52909 V
#Offset: 6.9788e-05 V
#Relative: yes

Frequency (Hz),Channel 1 Magnitude (dB),Channel 2 Magnitude (dB),Channel 2 Phase (deg)
100,0.01587590340934219,-0.06211306217387196,1.780170647148609
100.21662986987,0.01524182165878466,-0.06055063113665834,1.72329809379891
100.433729024745,0.01509109014584105,-0.06286019153212218,1.590806513288079
100.6512984812369,0.0143291924362899,-0.08246210026436661,1.410033560059816
100.8693392581593,0.01456694413780899,-0.1261100963321331,1.373776869479258
101.0878523765327,0.01678632673835726,-0.1580723215455978,1.65112014102931
101.3068388595904,0.0184688732843422,-0.1215654917919046,1.989335958502153
101.5262997327811,0.01597478351440838,-0.06121316870527412,1.742732886001249
101.7462360237761,0.01415575071436287,-0.1145300783482754,1.342917649208678
101.966648762472,0.01809357767183527,-0.1481597888986521,1.87282140786516
102.1875389809967,0.01485979091519045,-0.05976994046918614,1.692516791952144
102.4089077137146,0.01554142756631313,-0.1497913773372299,1.473812496991442
102.6307559972299,0.01704728482793899,-0.07879903836508205,1.902621763994119
102.8530848703935,0.01554554747353861,-0.1410787822693841,1.403051626633065
103.0758953743053,0.01603102126601794,-0.07023822256153719,1.836131896196434
103.299188552322,0.01757206404491213,-0.158815678284396,1.621224443784627
103.5229654500595,0.01291004853951248,-0.06769751805098664,1.462804331608481
103.7472271153995,0.01783947296987152,-0.1084226765470293,1.953883278613674
103.9719745984933,0.01701504956344772,-0.1567018117132793,1.54639419246428
104.1972089517671,0.01324438912060748,-0.09276144403084073,1.327146288458842
104.4229312299275,0.01584034412740715,-0.06265001013000508,1.68643512259959
104.6491424899651,0.01775591043147809,-0.09717507398322946,1.931762366034363
104.8758437911612,0.01687155317045628,-0.145016686757713,1.824737379129132
105.103036195091,0.01758790586279722,-0.1565924216321391,1.544367200872628
105.3307207656298,0.0165406936179791,-0.1411456283182473,1.371401125279668
105.5588985689574,0.01477624729374781,-0.1309183587924324,1.323394644967763
105.7875706735635,0.0147474080402591,-0.1254819055306066,1.308455877670568
106.0167381502521,0.01411881827797423,-0.1380123426818415,1.348303429829173
106.2464020721474,0.01517538998254027,-0.1486291358799938,1.432167249374416
106.4765635146978,0.01707629107784948,-0.1561404595738742,1.573667351238747
106.7072235556815,0.01731489863596631,-0.1439546441352149,1.791661082741445
106.9383832752121,0.01863166728662967,-0.1014674383477186,1.879693161884425
107.170043755742,0.01602328915368708,-0.06342154889744869,1.620387192314226
107.4022060820697,0.01360936232741932,-0.09900605508024839,1.283750905629375
107.6348713413428,0.01768197587921685,-0.1559637082126032,1.598153121076763
107.8680406230641,0.01724182813678191,-0.08873127946565018,1.83571086691019
108.1017150190971,0.01482323152963186,-0.09284534656852797,1.291467948451384
108.3358956236703,0.01805489208276033,-0.1481675605167022,1.713538976643179
108.5705835333823,0.01558828416611215,-0.06509029710025632,1.49328284849031
108.8057798472076,0.01778823840269178,-0.1533308868926619,1.590879955540785
109.0414856665016,0.01450988816514511,-0.06687060152875063,1.478920537963134
109.277702095005,0.01791267262454967,-0.1435400025928732,1.714629634340014
109.5144302388504,0.01426851332368268,-0.09786701900268022,1.271264040902793
109.7516712065656,0.01787270536238858,-0.0908437037229933,1.788371220675277
109.9894261090804,0.01526355188286944,-0.1511447072530478,1.536669398464369
110.2276960597312,0.01500536015805548,-0.1013004973768796,1.267299582199584
110.4664821742659,0.01726292400854097,-0.06934236100004385,1.58285671862091
110.70578557085,0.01808693002238976,-0.0923212550289301,1.773495718636248
110.9456073700706,0.01718859079894777,-0.1342386099910741,1.725834194691259
111.1859486949429,0.01640432542638198,-0.1489581750856745,1.519875772986694
111.4268106709143,0.01668074166229781,-0.1439301367016229,1.397022628252842
111.668194425871,0.01592114239766602,-0.1399519247248304,1.370166134403775
111.9101010901417,0.01553756616948732,-0.1400315799436987,1.365912842628632
112.1525317965046,0.0170924127225179,-0.1437433343150963,1.432892931900255
112.3954876801913,0.01532715876141943,-0.1452276056295911,1.524112149408339
112.6389698788924,0.0169341960945227,-0.1423428668298226,1.570239182527388
112.882979532764,0.01741295369643063,-0.1204903804513123,1.720212648592963
113.1275177844309,0.01722290693456045,-0.09486119007985144,1.705162708334219
113.3725857789947,0.01565252384620146,-0.07596171318054049,1.449633533871765
113.6181846640358,0.01649767102030111,-0.09969498337933858,1.279941085822415
113.8643155896222,0.01614692165612357,-0.140452072606256,1.495680995316107
114.1109797083121,0.01782709041835777,-0.1044528073927056,1.684659686602203
114.3581781751616,0.01524104307972766,-0.0788469683411849,1.438559240246647
114.6059121477279,0.01510466590416251,-0.1257592626826143,1.307728829161874
114.8541827860769,0.0167214419202253,-0.1152727375827035,1.658333636844077
115.1029912527866,0.01512280624002173,-0.08501435683474166,1.361671965947366
115.3523387129537,0.01717741017869868,-0.1372976545780368,1.471836627610458
115.6022263341996,0.01501536495541653,-0.08068285815521854,1.477994043478787
115.852655286674,0.01714650377354761,-0.1350160522434949,1.491064273807865
116.1036267430624,0.01531486581359925,-0.0840140136684711,1.394008558915317
116.3551418785903,0.01711351087528278,-0.1218103112500993,1.597183178382167
116.6072018710289,0.01568334859829139,-0.1166808675001628,1.29931401760342
116.8598079007009,0.01564600791488578,-0.08595708068878551,1.490114130456959
117.1129611504866,0.01722067652221868,-0.116839036296073,1.588811896934217
117.3666628058277,0.01708041254570504,-0.1290046041048741,1.376925872843331
117.6209140547345,0.01638554945752509,-0.1098860973985426,1.295201504587354
117.8757160877912,0.01529943034402402,-0.08895935485040238,1.388042331972258
118.1310700981603,0.01575531879966033,-0.0886038773266337,1.455589707744508
118.38697728159,0.01720331842939708,-0.09554798870026823,1.523352448425527
118.6434388364181,0.01670280962857898,-0.1006210496490461,1.539722280366206
118.9004559635785,0.01629464215214465,-0.09304220395998161,1.483187430320839
119.1580298666072,0.01726969017689007,-0.09542937630739007,1.496271356547936
119.4161617516467,0.01531165174123016,-0.09104567922068055,1.443102474144382
119.674852827453,0.01632822966598284,-0.09370610571964297,1.371725568439984
119.9341043054002,0.01639734202122824,-0.09418689001504074,1.359565928687061
120.1939173994868,0.01593083428101307,-0.1043508431740402,1.309465924814106
120.4542933263407,0.0156398953274832,-0.1149415598395985,1.312042881346407
120.7152333052263,0.0158339345197328,-0.1198939999413286,1.446963891849569
120.9767385580485,0.01634752875102685,-0.09687383401208781,1.438031062269232
121.2388103093597,0.01629722826180099,-0.1102733053699285,1.312998419579031
121.5014497863648,0.01518526598598435,-0.1202065331366005,1.379030459551416
121.7646582189269,0.01673699876510098,-0.1091909062231362,1.463598695041707
122.0284368395743,0.01562108861373966,-0.09737362448569332,1.359809788787288
122.292786883504,0.01547935107056577,-0.1173481636926754,1.341404095123288
122.5577095885904,0.01630327858371476,-0.100162580690806,1.427505610197329
122.8232061953875,0.01569339094786591,-0.1122345124011469,1.319210566419059
123.0892779471387,0.01715075868309556,-0.1081190712095647,1.430860376607358
123.3559260897793,0.0171342295456741,-0.1083238166507571,1.312647048191991
123.6231518719445,0.01723625106799507,-0.1096328205039659,1.42262795246274
123.8909565449739,0.01691870852093864,-0.1161339103154866,1.34913811953291
124.1593413629177,0.01568081591622706,-0.1028484574647706,1.32441496872984
124.4283075825436,0.01606170001414138,-0.1052465039130809,1.401234147429882
124.6978564633409,0.01587860765709892,-0.1158322582803474,1.342320343939377
124.9679892675281,0.01682986189445631,-0.108427580479052,1.312215469548647
125.2387072600575,0.01527088956720022,-0.1021206813940773,1.357081295710898
125.5100117086216,0.0163658651756264,-0.103773169581654,1.374420663046067
125.7819038836598,0.0167079648696899,-0.1124640177110583,1.363832008803811
126.054385058363,0.01679679464712657,-0.1139758487798784,1.339840443298399
126.3274565086801,0.01667362073595423,-0.1125366263468337,1.326270891845837
126.6011195133249,0.01543394521932446,-0.1121242274837933,1.323834817325931
126.8753753537806,0.0160981718872554,-0.1111117981952919,1.310308552900096
127.1502253143063,0.01680586189259015,-0.1122357441828925,1.314843814332562
127.4256706819441,0.01642366533030771,-0.1116398226167022,1.336302308647063
127.7017127465231,0.01685216672667574,-0.10990596546499,1.341669557923325
127.9783528006676,0.01719618376532328,-0.1065348397520222,1.335840225472673
128.2555921398015,0.01611611163298381,-0.1054796892781555,1.31054206924281
128.5334320621547,0.01600878100686449,-0.1088635118826703,1.292252114447237
128.8118738687704,0.01590280579512348,-0.1097561550201753,1.317205531007119
129.0909188635091,0.01701126188414021,-0.1060342745202995,1.311598167131086
129.3705683530574,0.01710466764701777,-0.1104744296116073,1.297497387916906
129.6508236469304,0.01741540775784556,-0.1079446300375319,1.313797217569061
129.9316860574822,0.01605833809855056,-0.1073593271012746,1.288707471731714
130.2131568999081,0.01620811692980508,-0.1089667836643862,1.302205608058927
130.495237492254,0.01628511182755055,-0.1082134834165216,1.282101012122112
130.77792915542,0.01572379214739687,-0.1086137627445656,1.302346839175499
131.0612332131678,0.01592736216776239,-0.1079081648431719,1.275091998611401
131.3451509921275,0.01568128951554528,-0.1073685104330822,1.286037267227385
131.629683821802,0.01564995552635776,-0.1085132581567862,1.265806765900763
131.9148330345755,0.01561139279322483,-0.1063199899795077,1.273032329487918
132.2005999657175,0.01562914638401181,-0.1085952506419828,1.281205871534439
132.4869859533906,0.01641298656408545,-0.1090242312000737,1.264608631634327
132.7739923386559,0.01571121729351681,-0.1071039710400975,1.263526139638737
133.0616204654803,0.01517044154342767,-0.106208082159624,1.269696141695867
133.3498716807413,0.01511481481280128,-0.1074818653585149,1.259430122007515
133.6387473342351,0.01621306088722469,-0.1074851522370533,1.264166082557296
133.9282487786811,0.01696776668923988,-0.1087023896362751,1.258903521298294
134.2183773697293,0.01681381653471966,-0.1096839232293378,1.251734127766113
134.509134465967,0.01717333701626459,-0.1077818900240352,1.237302022481927
134.8005214289236,0.01554427135993861,-0.1075430304546333,1.24579641153008
135.0925396230791,0.01597225043226979,-0.1075267288196299,1.24376919146178
135.3851904158687,0.0166102390935299,-0.1074250084671967,1.241745985287707
135.6784751776896,0.01580846991180766,-0.1068025764006517,1.246205032444166
135.9723952819086,0.01690229237612991,-0.1073153504237727,1.235637305089284
136.2669521048669,0.01516863613095313,-0.1069394485374213,1.230429202948727
136.5621470258875,0.01653833145355475,-0.1069023769426838,1.228563084656173
136.8579814272811,0.01732479109074235,-0.1083091792553003,1.22383420667876
137.1544566943537,0.01517593874750735,-0.1075986748339288,1.226124180537568
137.4515742154113,0.01571385071343413,-0.1078742699643077,1.220002765076231
137.7493353817684,0.01574977477926385,-0.1071902768293728,1.218113319120391
138.0477415877527,0.01567571791477301,-0.1072293803484014,1.218209959547977
138.3467942307124,0.01615875810095753,-0.107517607368173,1.214090699494302
138.6464947110238,0.01549266866972203,-0.1063697482474019,1.215630427179249
138.9468444320953,0.01568190600625241,-0.1077210050870579,1.207806572857351
139.247844800377,0.01668336648445362,-0.107101911141507,1.207731429540587
139.5494972253648,0.01517007355583559,-0.1077460736822176,1.201006627082734
139.8518031196084,0.01631480818316406,-0.1077563743618411,1.194998347060771
140.1547638987169,0.01641873316982493,-0.1080785811308091,1.201393803147596
140.4583809813673,0.01631104838405897,-0.1081803989412399,1.187742881934454
140.7626557893085,0.01651088126679205,-0.1074353644229717,1.196786516078518
141.0675897473704,0.01671816681014776,-0.1073426348790153,1.189995656240711
141.3731842834689,0.01661326241436251,-0.1086045942373284,1.187843472560047
141.6794408286129,0.01544506261276346,-0.1076938873418992,1.177369098332974
141.9863608169125,0.01607341385230868,-0.108209990828346,1.182506314414752
142.2939456855831,0.01662044409346417,-0.1087483958492833,1.178144600609699
142.6021968749546,0.01574200571488501,-0.107400872791088,1.173967254070705
142.9111158284766,0.01562786834910443,-0.1076074866433743,1.16778427437573
143.2207039927256,0.01550973415244876,-0.1067373871411088,1.16442159154181
143.5309628174116,0.01568975750747626,-0.1070813774809765,1.166412406113343
143.8418937553861,0.01652118098329501,-0.1094858564518459,1.167643110293071
144.153498262647,0.01700721532816133,-0.1079139360027002,1.162274593634564
144.4657777983461,0.0162727931749722,-0.1073412548106364,1.159648787223688
144.7787338247973,0.01627054930688457,-0.1079659543924793,1.15264990583475
145.0923678074811,0.01600631333280626,-0.1077543225954624,1.154566117036012
145.4066812150538,0.01495820130748088,-0.107178007973016,1.144428868227706
145.7216755193519,0.01738104599334662,-0.108933693066747,1.143853581040521
146.0373521954019,0.01509106311399238,-0.1066186680226593,1.145006609272301
146.3537127214244,0.0160538046673617,-0.10868669919725,1.141051286693802
146.6707585788424,0.01574554091411221,-0.1067053947035684,1.142676012758848
146.9884912522891,0.01662799688126375,-0.1084311902946951,1.139284130883169
147.3069122296128,0.01678800260478571,-0.1077825631725073,1.127182605207281
147.6260230018853,0.01581401951250717,-0.1062875614582466,1.134767618692692
147.9458250634083,0.01567813887518463,-0.1075814910359548,1.131741835103554
148.2663199117212,0.0146113745974703,-0.1069220888394141,1.128412523664871
148.5875090476067,0.01648247027289784,-0.1073635475999627,1.122759178523957
148.9093939750996,0.0156700754003001,-0.1066181676571578,1.128762253242115
149.2319762014921,0.0160303311407149,-0.1070491949399173,1.116887227761055
149.5552572373415,0.01590530736513058,-0.1067247387994442,1.119201086993499
149.8792385964785,0.01618842693135321,-0.1069295644614119,1.11201338338904
150.2039217960119,0.01620301857994062,-0.1071825683445349,1.119979842627004
150.5293083563385,0.01659829241256765,-0.1081245301089395,1.111814558044813
150.8553998011467,0.0154119186030684,-0.1069214277855667,1.112279889364786
151.1821976574278,0.01576444740120056,-0.1061720709958021,1.105288224243665
151.5097034554794,0.01630947328726024,-0.1072520739733287,1.101648926370189
151.8379187289154,0.01654011966153614,-0.1079634635672211,1.106583632885673
152.1668450146709,0.01602200431898057,-0.1073112099201428,1.101754186019377
152.4964838530115,0.01532572143287383,-0.1058447921979439,1.090854912765451
152.8268367875386,0.01578213554324671,-0.1077831023253827,1.094317418757328
153.1579053651975,0.01520572614611659,-0.1069600040650205,1.09026132593192
153.4896911362858,0.01681929647597922,-0.1081459273517808,1.087833678008963
153.8221956544582,0.01646510605733149,-0.1069457807134635,1.085508135728674
154.1554204767356,0.01533506774376882,-0.1069388877032995,1.081078749182204
154.4893671635116,0.01623781772904359,-0.1071928095577681,1.080068215504873
154.8240372785609,0.01513686386399989,-0.1078959646232699,1.070383771016591
155.1594323890446,0.01627485433993401,-0.1067903451836168,1.072488568240786
155.49555406552,0.01582803053110434,-0.1083856627646747,1.078060977867121
155.8324038819458,0.01574578201306698,-0.1072596155916561,1.067881543510595
156.1699834156902,0.0162046409995765,-0.1065770219922904,1.064055614281315
156.5082942475396,0.0155608574847162,-0.1063589082983195,1.069123473783215
156.8473379617035,0.01579824781943174,-0.1066289217919043,1.074067576748341
157.1871161458245,0.01611338422321148,-0.1083261489951571,1.056683883098454
157.5276303909836,0.01509235475337071,-0.1087467242987367,1.053169147192818
157.8688822917086,0.01610942342246572,-0.1074067000486956,1.049621215902633
158.2108734459823,0.01587720064707251,-0.1081252899347004,1.043588545425791
158.5536054552485,0.01563361053766068,-0.1082398209406601,1.049498229582099
158.8970799244201,0.01623412983281795,-0.1071749880872477,1.04540952276443
159.2412984618876,0.01675674217633917,-0.1081751726913374,1.046631291380245
159.5862626795249,0.01625458201357263,-0.1083406616670131,1.040387227328537
159.9319741926976,0.01594208327080261,-0.1071520633114746,1.050319735429696
160.2784346202718,0.01681854048275333,-0.106848635470636,1.034176382984185
160.625645584619,0.0153876493356316,-0.1079869630527409,1.040840065423303
160.9736087116268,0.01532991673874702,-0.1063543975055321,1.039009123751555
161.3223256307038,0.01629939444391206,-0.1065207855958269,1.02887708328845
161.6717979747885,0.01714327574045943,-0.1078088388673907,1.032536235576799
162.0220273803578,0.01539945916858702,-0.1057380062833632,1.034544409232154
162.3730154874323,0.01590686608173915,-0.1073159072964928,1.023985309506841
162.724763939587,0.01706744318678277,-0.1070310419872261,1.021004030556753
163.0772743839553,0.01591941489267325,-0.1074779522456899,1.017447252858112
163.4305484712408,0.01717349121708961,-0.1071616996463489,1.012783448860603
163.7845878557215,0.01604221651779195,-0.1076674739820833,1.015342042137725
164.1393941952605,0.01615724130093127,-0.1077027594277492,1.012814391074699
164.4949691513111,0.01778133625673916,-0.108484207809594,1.008929034201373
164.8513143889259,0.01608383344516417,-0.1071568814875532,1.012333656984822
165.2084315767657,0.01577784920140103,-0.1071060442364633,1.003234591597703
165.5663223871043,0.01609110910183831,-0.1070475976511073,0.9999367836924478
165.9249884958401,0.01663605768477156,-0.1067778831691977,1.002602045621416
166.2844315825004,0.01649294421000942,-0.1067325757001439,1.000035516224045
166.6446533302516,0.01600635903726833,-0.1078216301553916,1.00266699087129
167.0056554259059,0.01553999525232833,-0.1063897185786024,1.001575634334898
167.3674395599306,0.01722132905222004,-0.1075321066659847,0.9958283936039436
167.7300074264537,0.01525566169783953,-0.1061448476005351,0.9899513068917543
168.0933607232746,0.01530132202637603,-0.1064689230203977,0.9834959931104947
168.4575011518695,0.01646284661557004,-0.1096628810374547,0.9869813667920653
168.8224304174007,0.01586270547892637,-0.105238910570304,0.9918304334304651
169.1881502287253,0.0154039593620009,-0.1050352469094127,0.9655886737161552
169.5546622984009,0.01571391243897925,-0.1085497874324231,0.9775583756595374
169.9219683426964,0.01768709798635795,-0.1067226370311517,0.9884721161574817
170.2900700815977,0.01483347901137391,-0.1061724338343625,0.9604214837016372
170.6589692388167,0.01690806868655879,-0.1082515078107024,0.980586158911791
171.0286675418002,0.01660405395634111,-0.106039690387683,0.9570192145497369
171.3991667217364,0.01598464297790866,-0.1062771380831554,0.9822817155277619
171.7704685135639,0.0163092762791183,-0.1079125440895093,0.9564167339450194
172.1425746559796,0.01546402504075546,-0.1041539504374392,0.9664506018909833
172.5154868914477,0.01636912980225775,-0.107681293853864,0.9747307769155853
172.8892069662059,0.01634853976904229,-0.1098170062804915,0.9685432869730306
173.2637366302761,0.0162854496262396,-0.1095281523281476,0.9452700817238977
173.6390776374701,0.01696510752982838,-0.1072366960324171,0.9359333628515571
174.0152317453993,0.01585848750623901,-0.1052158802294843,0.9373160990457166
