#Digilent WaveForms Network Analyzer - Bode
#Device Name: Discovery2NI
#Serial Number: SN:210321ABE135
#Date Time: 2021-11-06 12:00:58.816
#Start: 100 Hz
#Stop: 5e+06 Hz
#Steps: 10001
#Wavegen: Wavegen C1
#Amplification: 1 X
#Settle: 100 ms
#MinPeriods: 16 
#Channel: Channel 1
#Range: 5.51199 V
#Offset: 0.000299138 V
#Relative: no
#Channel: Channel 2
#Range: 5.52909 V
#Offset: 6.9788e-05 V
#Relative: yes
#Power Supplies: ON
#Positive Supply: ON
#Voltage: 5 V
#Negative Supply: ON
#Voltage: -5 V

Frequency (Hz),Channel 1 Magnitude (dB),Channel 2 Magnitude (dB),Channel 2 Phase (deg)
100,0.01441744163508806,16.96160933294475,179.9851315188338
100.1082563377617,0.01378295936031391,16.96268094716243,179.990183936119
100.21662986987,0.01187673913300091,16.96341036730919,179.9926563563584
100.3251207231951,0.01293906901465226,16.96181193731085,179.9793727832244
100.433729024745,0.01350456793388981,16.96221392658718,179.9910009930449
100.5424549016647,0.01346299439949282,16.96341139888921,179.995970519038
100.6512984812369,0.01136929577847277,16.96566715450491,179.984838745746
100.7602598908822,0.01122543909199104,16.96593890119762,179.9768303804914
100.8693392581593,0.01163043338845936,16.96449179592468,179.9631485310918
100.9785367107643,0.01395796343281622,16.96162013741634,179.9761068533369
101.0878523765327,0.01176763840163036,16.96424410513225,179.9874474809718
101.1972863834375,0.01051316957933337,16.96618085541157,179.9775107490708
101.3068388595904,0.01426633550333941,16.96264686835355,179.9619983781894
101.4165099332419,0.012872535829928,16.96380341477188,179.9884012011184
101.5262997327811,0.01096612818193031,16.96582969450514,179.9669477628318
101.6362083867368,0.01366014189903387,16.96141919781854,179.9803100270434
101.7462360237761,0.009469387481518958,16.96755741354063,179.975100265331
101.8563827727058,0.01361247816943041,16.96169760271134,179.9701547389398
101.966648762472,0.01114919122822598,16.96645147224349,179.9823110863154
102.0770341221606,0.01359609868843939,16.96172049280595,179.9759857475219
102.1875389809967,0.01030466215779068,16.96632128444356,179.9733288198095
102.2981634683463,0.01306701456782803,16.96296457690245,179.9856673472312
102.4089077137146,0.01147815258608967,16.96403518691202,179.9607990514682
102.5197718467472,0.01186240811496919,16.96557518215077,179.9876314752152
102.6307559972299,0.01418824976576061,16.96169131521889,179.9879812938788
102.7418602950896,0.01337381134656948,16.96228979057052,179.964532662222
102.8530848703935,0.01099218233461791,16.96562451931187,179.9735330068175
102.9644298533489,0.01077018208182139,16.96564727321845,179.9879262027812
103.0758953743053,0.0126560207010391,16.96347000484188,179.992159463281
103.1874815637526,0.01311698776497078,16.96226269088585,179.9749404369342
103.299188552322,0.01395452937328217,16.96229638605338,179.9656429235513
103.4110164707861,0.01222833091910995,16.96385303996277,179.9549612016964
103.5229654500595,0.01073807867418908,16.96533149062138,179.9638214880571
103.635035621198,0.01116924023317238,16.96555810080243,179.9622728938012
103.7472271153995,0.01066660548554311,16.96567065238948,179.9652564630292
103.8595400640037,0.01155407044675725,16.96497381758175,179.9644110575434
103.9719745984933,0.01092433865082186,16.96561080307903,179.9693540910591
104.0845308504921,0.01157073141374959,16.96426006192931,179.9631162343194
104.1972089517671,0.01315000187561005,16.96282156374894,179.9642767184855
104.3100090342281,0.01332049123859817,16.96275328981362,179.970197715748
104.4229312299275,0.01247026079260102,16.96289582541846,179.9895259192871
104.5359756710604,0.01202386057459855,16.96475071728956,179.9944682684165
104.6491424899651,0.01097194396809169,16.96611151821531,179.9819096436538
104.7624318191237,0.01176169028273362,16.96443073976304,179.9613383240388
104.8758437911612,0.01359808841230318,16.96143104923759,179.9798764057091
104.9893785388461,0.01127644349113895,16.96556543606822,179.9883585454639
105.103036195091,0.01133106785810423,16.9648613871129,179.9688071996401
105.2168168929522,0.01348907961273533,16.96132681817993,179.9782067481846
105.3307207656298,0.01069818988223186,16.96589415026179,179.9823205166217
105.4447479464685,0.012771170007543,16.96322988179427,179.9655031613692
105.5588985689574,0.01203240569084556,16.96403420293804,179.9867184860694
105.6731727667297,0.01164743124713313,16.9643178998444,179.9640042762344
105.7875706735635,0.01194969140615246,16.96388799362388,179.9907779740855
105.9020924233815,0.01198365891387477,16.96428685519083,179.9598127267859
106.0167381502521,0.01168491138317192,16.96467839963839,179.9929108501697
106.1315079883879,0.01302990953888498,16.96272005115687,179.9630025876107
106.2464020721474,0.009769402069028169,16.96671395135952,179.9798103992185
106.3614205360342,0.01365061510643295,16.96138664697208,179.9826835385
106.4765635146978,0.01160569617807618,16.96455019824965,179.9604520758557
106.5918311429333,0.01111169115907593,16.96566932591383,179.9799448585988
106.7072235556815,0.01299799853999021,16.96313134762165,179.9912082528446
106.8227408880301,0.01275571023011683,16.96296556715861,179.9673171917142
106.9383832752121,0.01231865485938431,16.96432127821792,179.9662678982604
107.0541508526074,0.01092358335886023,16.96573849779025,179.9729994054686
107.170043755742,0.01114468237319953,16.96518362288308,179.9859530737899
107.2860621202896,0.01261101767565531,16.96359083795265,179.9904684279502
107.4022060820697,0.01401004511624402,16.96231045640583,179.9912156643864
107.5184757770494,0.0130085148845731,16.96225804702887,179.9856327258374
107.6348713413428,0.01280538073011337,16.96241662175772,179.9772368014432
107.7513929112114,0.01382675456350284,16.96212958091317,179.9799638487676
107.8680406230641,0.01332672956659986,16.96250200018626,179.9914991792681
107.9848146134579,0.01260270948587696,16.96318320923468,179.9887347094291
108.1017150190971,0.01229264564012654,16.96488101311004,179.9874761828904
108.2187419768344,0.01158500162235768,16.96478197194929,179.9743621387073
108.3358956236703,0.01102367581976201,16.96548684002799,179.9598202966951
108.4531760967535,0.01115568703731386,16.9640159090346,179.9632158637232
108.5705835333823,0.01250079961315303,16.96266577563091,179.9704727034376
108.6881180710018,0.01186395696719584,16.96418484057427,179.9891808599151
108.8057798472076,0.01077590362079847,16.96606261981956,179.9767531578887
108.9235689997432,0.01241280337758147,16.96327782907655,179.9625701494867
109.0414856665016,0.01198221823243643,16.96410073335679,179.9852105658419
109.1595299855249,0.01096010782033397,16.96600443256166,179.9687898144667
109.277702095005,0.01339816165405487,16.96226908520325,179.9702164524533
109.3960021332832,0.01090362657139287,16.96502909457764,179.9869186193682
109.5144302388504,0.01363372913156658,16.96313570613875,179.9635361422944
109.6329865503475,0.01265119077534021,16.96425861124006,179.9871746548357
109.7516712065656,0.01272359579673489,16.96402579464792,179.9645503885068
109.8704843464461,0.01151190663584675,16.9657891872458,179.9861882297538
109.9894261090804,0.0116299697852756,16.96353612924644,179.9707327900046
110.1084966337111,0.01026458736982642,16.96636028208827,179.9691626693379
110.2276960597312,0.01345742466255703,16.96313283081258,179.9839505261056
110.3470245266845,0.01288577877458996,16.96316261198949,179.9649864433871
110.4664821742659,0.009867467757538061,16.96604649007702,179.9692652374574
110.5860691423219,0.0120347775168536,16.96408968734235,179.9871996085312
110.70578557085,0.01317516958393242,16.96225623821806,179.9820585521396
110.8256315999993,0.01321958381795066,16.96298689923927,179.9714545992598
110.9456073700706,0.01131508073961092,16.96518383911289,179.9664723302308
111.0657130215169,0.01153387465290447,16.96495283399996,179.9733704950819
111.1859486949429,0.01132909565960355,16.96550583168563,179.9822520700176
111.3063145311054,0.01180597413462954,16.96369324895916,179.9850560826731
111.4268106709143,0.01340925119906856,16.96274667041519,179.9857137260054
111.5474372554312,0.01299770538430575,16.9638349421622,179.9862081095085
111.668194425871,0.01295475264296967,16.96288846210713,179.9802113833509
111.7890823236008,0.01293306336697912,16.96347145311188,179.9863131463456
111.9101010901417,0.01202231272878808,16.96434791194125,179.9857893356726
112.0312508671672,0.01210439826539395,16.96426725591739,179.9868983142215
112.1525317965046,0.011582371115461,16.96549863855029,179.9815431279235
112.2739440201345,0.01120366330482763,16.9658244787452,179.9719285750628
112.3954876801913,0.01177532233689895,16.965197410953,179.9586698709672
112.5171629189633,0.01204519572423469,16.96390539687529,179.9620247645217
112.6389698788924,0.01398504884734952,16.96183853540808,179.9817071851949
112.7609087025758,0.01152539979557773,16.96587021423544,179.9883926189204
112.882979532764,0.01071878420431577,16.96636355069811,179.9716385287249
113.0051825123624,0.01345151745765871,16.96309747297398,179.9665235181034
113.1275177844309,0.01229849632405173,16.96381835198233,179.9855567889352
113.249985492185,0.01091412444333939,16.96645512740232,179.9769270403986
113.3725857789947,0.01345351205146358,16.96363649891076,179.9651559628688
113.4953187883846,0.01178200343271767,16.96377204594719,179.9797543607502
113.6181846640358,0.01062412886807799,16.966408864887,179.9763392065557
113.7411835497844,0.01219791937071025,16.96363192257384,179.9681324654643
113.8643155896222,0.01227844387618024,16.96469959013131,179.9851545001712
113.9875809276966,0.01262402238004305,16.96318862827585,179.9620725635738
114.1109797083121,0.01146787599769681,16.96495898796328,179.9866140991218
114.2345120759283,0.01312085616327604,16.96252588363908,179.9672891290463
114.3581781751616,0.01112098026784436,16.96589392793521,179.9762101171951
114.4819781507848,0.0126749985031825,16.96280986366689,179.9759623020232
114.6059121477279,0.01240568761168194,16.96510690654443,179.9668850968735
114.7299803110774,0.01171737725748647,16.96561947632342,179.9844292631795
114.8541827860769,0.01312832709454355,16.96288653458851,179.9744620942628
114.9785197181272,0.01144665817482996,16.96505181937893,179.9603028365924
115.1029912527866,0.01086346862564165,16.9664330379994,179.9716695617836
115.227597535771,0.01267885099186866,16.964395992837,179.9824499161774
115.3523387129537,0.01290748751590133,16.96324529776395,179.9772766300018
115.4772149303668,0.01333094249692271,16.96293303333371,179.9719316286918
115.6022263341996,0.01228223996127231,16.96400923917496,179.9690808982069
115.7273730708,0.01121244196419586,16.96524196353774,179.9630954631862
115.852655286674,0.01026856965132431,16.96616401084466,179.9586633777346
115.9780731284872,0.01191063063911807,16.96489038470957,179.964972345807
116.1036267430624,0.01155105953917266,16.96512134400572,179.967155345274
116.2293162773829,0.01114979016619638,16.96510963328741,179.9611322640665
116.3551418785903,0.01244004655362948,16.96451130399508,179.96041057134
116.4811036939854,0.01358244173033947,16.96274409005378,179.9656668283156
116.6072018710289,0.01367833156078724,16.96268020427587,179.9777713689187
116.7334365573406,0.01284078847258686,16.96390620213225,179.9819611299373
116.8598079007009,0.01210559048612971,16.96500699363789,179.9809531207462
116.9863160490495,0.01163107820034506,16.9650194260451,179.9684729632147
117.1129611504866,0.01254197098447337,16.96318412411332,179.9636533176689
117.2397433532723,0.01426255959924517,16.96258366036268,179.9780882886427
117.3666628058277,0.01230003174068619,16.96416841242156,179.9877600726127
117.4937196567342,0.01167473108327227,16.9648815168296,179.9641185247613
117.6209140547345,0.01226684134696567,16.9626750792267,179.975748649389
117.748246148732,0.0117718973725719,16.96525501530033,179.9812109967036
117.8757160877912,0.01219456244169911,16.96308045531879,179.9723159312169
118.0033240211379,0.01238035848639099,16.96442284757095,179.9804238633033
118.1310700981603,0.01221130144581607,16.96348282087598,179.970510784496
118.2589544684072,0.0109988423196159,16.96539698000364,179.9809879498144
118.38697728159,0.01290007872500916,16.96311353288267,179.975317292891
118.5151386875817,0.01190487243870107,16.96519974682895,179.9661628222744
118.6434388364181,0.0115659284293812,16.96403096730146,179.982234333733
118.7718778782969,0.01342000743759997,16.96269018087273,179.9700585220728
118.9004559635785,0.01261749335870832,16.964329806186,179.9651122106179
119.0291732427866,0.01130551367505632,16.96503085751493,179.9803128036565
119.1580298666072,0.01353202829457912,16.96275259578533,179.9806155805016
119.2870259858898,0.01269363887318922,16.96313469952042,179.9686232388086
119.4161617516467,0.01172759918870555,16.96413944937635,179.9684658638526
119.5454373150545,0.01165271350232276,16.96474378117584,179.9683394794625
119.674852827453,0.0113407946836802,16.96499333022199,179.9723360872109
119.8044084403457,0.01150235551886382,16.96521371169787,179.9733826636572
119.9341043054002,0.01225197976458016,16.96515169214042,179.9791050354789
120.0639405744485,0.01231194044322904,16.96481359344392,179.978854684516
120.1939173994868,0.01220293313488023,16.96466690154916,179.9805542041037
120.3240349326755,0.01143683022110363,16.9644700011977,179.9690398713462
120.4542933263407,0.01177437637749646,16.96558461051908,179.9672372114976
120.5846927329725,0.01186205123751524,16.96470938064407,179.9728152524522
120.7152333052263,0.01204226487396785,16.96467654586749,179.9682968087766
120.8459151959228,0.0123921450610082,16.96403386889151,179.9690385567314
120.9767385580485,0.01214520120796275,16.96339458531957,179.9721516572113
121.1077035447552,0.01189440336062792,16.96386633616997,179.9792419117163
121.2388103093597,0.01138315776585654,16.96546339900512,179.9731728450056
121.3700590053465,0.01193897610391083,16.96553721608447,179.9665320036715
121.5014497863648,0.01112431197865038,16.96498966589781,179.9665178935406
121.6329828062309,0.01359446940257858,16.96301465617373,179.9736758645889
121.7646582189269,0.01268360515728687,16.96396907596147,179.9761369399093
121.8964761786028,0.01119090393676775,16.96475473585772,179.977072906746
122.0284368395743,0.01234200112100311,16.96465118952368,179.9689190406872
122.1605403563246,0.01166522488536933,16.96372683974012,179.9743658267611
122.292786883504,0.01206678306262876,16.96482867621815,179.9750902431906
122.425176575931,0.01261535122414584,16.96390209676569,179.9669444331988
122.5577095885904,0.01305313795697482,16.96371311342413,179.9680118802085
122.6903860766353,0.01198836787653699,16.96432870491776,179.9722146657997
122.8232061953875,0.01293893183757158,16.96383921366247,179.971000244518
122.9561701003361,0.01134482222106609,16.96553831573076,179.9671504727364
123.0892779471387,0.01172047010709351,16.96365720206039,179.9734914281147
123.2225298916213,0.01175017112086374,16.96444623891013,179.9676489693595
123.3559260897793,0.01195069900575496,16.96425727269446,179.9748827736035
123.4894666977761,0.0122301552139338,16.96431084035658,179.9676072391644
123.6231518719445,0.01276635489152217,16.96424656571118,179.9656948291561
123.7569817687866,0.01155982644126649,16.96455142286628,179.9721572113902
123.8909565449739,0.01255023914096752,16.96414677128271,179.9697272848018
124.0250763573471,0.01120682516834644,16.96489216552621,179.9665596416934
124.1593413629177,0.01207721813696216,16.96460490566446,179.9705436243131
124.2937517188662,0.01219803557817475,16.96438866439732,179.9805452373443
124.4283075825436,0.01255496215059566,16.96376254783487,179.9744992885988
124.5630091114713,0.01239905047553387,16.96375499641385,179.9694278267486
124.6978564633409,0.01335723546579339,16.96332306862491,179.973592954905
124.8328497960154,0.01266028500599208,16.96315260332882,179.9699048161349
124.9679892675281,0.01304442253750309,16.96349196830439,179.9690639960274
125.1032750360835,0.01219431297911361,16.96406767521853,179.9683397765471
125.2387072600575,0.01191023580787447,16.96419487182039,179.9734342414289
125.3742860979973,0.01308285522458846,16.9643511591452,179.9697618037438
125.5100117086216,0.01257698229418762,16.96402002918775,179.9721214793119
125.6458842508216,0.01335368305944037,16.96385206469039,179.9681469672283
125.7819038836598,0.01246196857035742,16.96463282105689,179.9792494669082
125.9180707663711,0.01162355635711926,16.9647827445111,179.9744685836409
126.054385058363,0.01159176982897392,16.96417552847179,179.9717223582933
126.1908469192149,0.01161416732809419,16.96484816131969,179.9739229129842
126.3274565086801,0.01256051003031813,16.96428423887152,179.9729074504263
126.4642139866838,0.01197966038090891,16.96444626072704,179.9652011864696
126.6011195133249,0.01251618798206944,16.96400613950412,179.9730855730377
126.7381732488753,0.01288582402691538,16.96390303978084,179.9731709964756
126.8753753537806,0.01207930728325395,16.96433940807639,179.9737057662139
127.0127259886597,0.01124551718263872,16.96461531443921,179.9756486481679
127.1502253143063,0.01282335983858408,16.96390437533817,179.9676218393545
127.2878734916873,0.01149352605038952,16.96453518052891,179.9707182191137
127.4256706819441,0.01109047753451222,16.96434348555411,179.9700288101291
127.5636170463924,0.01122501932499729,16.96436155481111,179.973685303154
127.7017127465231,0.01079755700125731,16.96496169643203,179.971897006825
127.8399579440017,0.01156667423101532,16.96436229232961,179.9700696580738
127.9783528006676,0.01310507124514227,16.96353569730189,179.9674987291791
128.1168974785374,0.01225791575054893,16.96384552789026,179.9710957173677
128.2555921398015,0.01124505519094109,16.96445260749543,179.9720690232539
128.3944369468266,0.01163014870878846,16.96506292959246,179.9742425227561
128.5334320621547,0.01294047232078386,16.96451787460535,179.9680736193044
128.6725776485046,0.01270530007176047,16.96403655129545,179.9712033566975
128.8118738687704,0.01181401940958919,16.96502031517069,179.9724680379821
128.9513208860229,0.01147986335212492,16.96433429849823,179.9691772895794
129.0909188635091,0.0119507384449532,16.96445420184675,179.9769862074952
129.2306679646539,0.01312660490604788,16.96382933131799,179.9642513379166
129.3705683530574,0.01232369848828256,16.96406582741456,179.9647483464538
129.5106201924976,0.01250485536941803,16.96374656622251,179.9692826554099
129.6508236469304,0.01102992877515413,16.96484394586446,179.9694002130828
129.7911788804884,0.01214007460293194,16.96411972777283,179.9712921860593
129.9316860574822,0.01181893823931353,16.9645502939982,179.969315055937
130.0723453423997,0.01190132280379046,16.96463017317575,179.9682314551285
130.2131568999081,0.01215535066933231,16.96437890183269,179.9734902173854
130.3541208948518,0.0117840938837528,16.96439214621107,179.9761110779625
130.495237492254,0.01220736510773033,16.9651449651041,179.9674508449108
130.6365068573162,0.01273101593576752,16.96419935147996,179.9706779318363
130.77792915542,0.01209139738354936,16.96424672261248,179.9745074479704
130.9195045521242,0.01128621793134473,16.96439546948727,179.9713463218914
131.0612332131678,0.01118792722092101,16.96472159428696,179.9748038651868
131.2031153044697,0.01236607771294728,16.96366261240687,179.9744762171234
131.3451509921275,0.01109176266729943,16.96471521517755,179.9753497291322
131.4873404424191,0.01176713898428332,16.96385563385853,179.9698198727101
131.629683821802,0.01261251650994543,16.96346612435797,179.9702185495145
131.7721812969148,0.01269351764137755,16.96377490598479,179.9701800832306
131.9148330345755,0.01134699992146064,16.96457821845741,179.9706041058376
132.0576392017832,0.01210130106551022,16.96396785780141,179.9731001847673
132.2005999657175,0.01215230117329725,16.96422647849315,179.9690746853622
132.3437154937394,0.0121224794561487,16.96391636879006,179.9699680090375
132.4869859533906,0.01253831849615633,16.96418911137243,179.9652140802451
132.6304115123943,0.01253404062200081,16.96389599603529,179.9703610289091
132.7739923386559,0.01065327199531255,16.96509317569787,179.9687183946616
