#Digilent WaveForms Network Analyzer - Bode
#Device Name: Discovery2NI
#Serial Number: SN:210321ABE135
#Date Time: 2021-12-20 21:03:08.697
#Start: 1 Hz
#Stop: 1000 Hz
#Steps: 501
#Wavegen: Wavegen C1
#Amplification: 1 X
#Settle: 10 ms
#MinPeriods: 16 
#Channel: Channel 1
#Range: 5.51199 V
#Offset: 0.000299138 V
#Relative: no
#Channel: Channel 2
#Range: 5.52909 V
#Offset: 6.9788e-05 V
#Relative: yes
#Power Supplies: ON
#Positive Supply: ON
#Voltage: 5 V
#Negative Supply: ON
#Voltage: -5 V

Frequency (Hz),Channel 1 Magnitude (dB),Channel 2 Magnitude (dB),Channel 2 Phase (deg)
1.000000000000001,-0.06338323007525319,-23.74339780654054,89.08037730255944
1.01391138573668,-0.06312720133011807,-23.6111158652413,89.27433597023324
1.028016298126475,-0.05954779617671094,-23.55423500377293,88.97423920852042
1.042317429393305,-0.06074312456297268,-23.41130556342573,89.05453338144255
1.05681750921366,-0.06180999014076365,-23.25984176128422,89.07942727896381
1.071519305237607,-0.05900381243150557,-23.14275180162185,89.01135693668168
1.086425623617067,-0.05864627366303298,-23.04452006392887,88.93448265402483
1.101539309541416,-0.0600513340426867,-22.93361918026437,89.12587665056991
1.116863247780562,-0.06204737616324826,-22.8027276589637,89.01753013114167
1.132400363235558,-0.05968249561704342,-22.67908281164003,89.03972924050503
1.148153621496884,-0.06109560763140776,-22.56663518760136,89.01812967874343
1.164126029410492,-0.06066007265802018,-22.45087372270913,89.11062792605682
1.180320635651731,-0.06076425739234795,-22.32790549469765,89.13347400341442
1.196740531307244,-0.05792906982604206,-22.2382710748593,89.23906560165366
1.213388850464979,-0.06159253141936531,-22.07557268131337,89.08152702823872
1.230268770812382,-0.06134423906586212,-21.95806819610009,89.1551622576864
1.247383514242945,-0.06059123675215439,-21.85032395735707,89.21418480427913
1.264736347471152,-0.06010607879044228,-21.72997694987775,89.06558226645006
1.282330582656023,-0.05968557915225509,-21.61944109022109,89.3104458889913
1.300169578033291,-0.06187412368218608,-21.4903928665952,89.01945466871172
1.318256738556409,-0.06112802541492535,-21.38180240955206,89.06921374719934
1.336595516546443,-0.06129244280669705,-21.25483217970887,89.21419374585537
1.355189412351038,-0.06361395547856559,-21.13442407301417,89.13003024166369
1.374041975012516,-0.06148059604482042,-21.01833180658862,89.13655973605904
1.393156802945305,-0.06132097054800448,-20.90100935374858,89.22893865149581
1.412537544622755,-0.06101870151163968,-20.77856615867193,89.14780558405667
1.432187899273545,-0.060768459614707,-20.65094218640265,89.16156176453686
1.452111617587743,-0.06119087612052117,-20.53357532535848,89.12769676529518
1.472312502432721,-0.0616903292778733,-20.41656239864899,89.1115357278961
1.492794409578997,-0.06201172374194718,-20.30437231504207,89.17777207926956
1.51356124843621,-0.06154377003115562,-20.18480009581039,89.08087987474397
1.534616982799296,-0.06234527565129636,-20.06085945309168,89.17155558123054
1.555965631605077,-0.06040685730932333,-19.94240516125263,89.10799211320005
1.57761126969935,-0.06054686239232231,-19.83481670392874,89.18486763306599
1.599558028614671,-0.06311417330001612,-19.71439919719813,89.14432921782091
1.621810097358932,-0.06147343951145198,-19.5849760892443,89.04746901976365
1.644371723214932,-0.06152529842712975,-19.46029314434461,89.14586672438993
1.667247212551064,-0.06246155781626658,-19.33626070426616,89.10568422783641
1.690440931643265,-0.06107269922130669,-19.22700547601913,89.09569562164701
1.713957307508427,-0.06246006296303176,-19.10382856582485,89.1510086190703
1.737800828749376,-0.0624602176120678,-18.99059152422375,89.04242654409228
1.761976046411631,-0.06207014923334354,-18.87323672292509,89.1231798585561
1.786487574852052,-0.06092625745604584,-18.76758493241319,89.21547758940567
1.811340092619604,-0.06177449610448218,-18.62694270014779,89.22686972567271
1.836538343348347,-0.06145986110926469,-18.52091653770464,89.00926561920579
1.86208713666287,-0.06189680437569543,-18.3886830222142,89.22765449156043
1.887991349096295,-0.06269048767107852,-18.27286349294072,89.15975891512261
1.914255925021088,-0.06235459318636843,-18.14355246644918,89.17758938759471
1.940885877592779,-0.06441875126911298,-18.02632661266559,89.19681014096656
1.967886289706847,-0.06325823130890532,-17.91861012395431,89.13003786268764
1.995262314968881,-0.06344661792291295,-17.78530044791839,89.22124009791511
2.023019178678274,-0.06414434148218522,-17.66089100713048,89.20714557833556
2.051162178825567,-0.06232102882281908,-17.54787962159437,89.15639563695872
2.079696687103698,-0.06225986681619528,-17.43192027784228,89.14162968089596
2.108628149933291,-0.06257557887179183,-17.31055464997628,89.06698027324347
2.137962089502235,-0.06302988205909781,-17.19086859830328,89.13214504561277
2.167704104819696,-0.06210545517709395,-17.07276335100479,89.13217722008032
2.197859872784827,-0.06220335569743328,-16.95991176766903,89.10206133188463
2.228435149270305,-0.06105447440070556,-16.83467963895174,89.09085566902877
2.259435770220981,-0.06352034906155424,-16.70388420072902,89.15627699981115
2.290867652767774,-0.06197712321219986,-16.59066250387407,89.10572362497805
2.32273679635711,-0.06435913145872045,-16.47440812711829,89.03947348664963
2.355049283896011,-0.06323384164146356,-16.34044437249939,89.11004628854602
2.387811282913181,-0.06255193600305234,-16.2300125901266,89.08582117650954
2.42102904673618,-0.06353769646472118,-16.10321744522756,89.09478731905851
2.454708915685034,-0.06273202219513885,-15.98346685437313,89.1057299961782
2.488857318282393,-0.0644010574445377,-15.85712430497214,89.09196016401786
2.523480772480578,-0.06231543531315844,-15.74657413864372,89.12770125414976
2.558585886905648,-0.06348719306663431,-15.60997691907768,89.10438093908454
2.594179362118818,-0.06108498765136228,-15.51053697247037,89.07909053673097
2.630267991895384,-0.06433778025975959,-15.36612511753642,89.08700606197236
2.666858664521483,-0.0627089861219739,-15.25542951562719,89.12603723547312
2.703958364108846,-0.06368662068928491,-15.1298251662735,89.0989835790952
2.741574171927887,-0.06405436235275912,-15.01262176029849,89.04514442249543
2.779713267759291,-0.06259046950908831,-14.88571151599214,89.06362964244693
2.818382931264458,-0.06300934757233076,-14.77187209566376,89.07025828165223
2.85759054337495,-0.06313028946164777,-14.65109099868209,89.04886619159561
2.897343587701327,-0.06382540709195129,-14.52829167149739,89.01206246697438
2.937649651961534,-0.06332379713914962,-14.40376897710363,89.02234860472296
2.978516429429194,-0.06168626977679267,-14.28912488753016,88.99131286253134
3.019951720402019,-0.06348372434857508,-14.15943897985,89.04134112933585
3.061963433690682,-0.06291948335947736,-14.04256493885306,88.97358594465248
3.104559588128359,-0.06395781575182198,-13.92275135732585,88.97610513773593
3.14774831410132,-0.06315335092873894,-13.81014335613791,88.99078208304694
3.191537855100765,-0.06225603131580615,-13.6796553638559,88.94077342334178
3.235936569296288,-0.06260750381318565,-13.55381734813965,89.01889003962241
3.28095293113119,-0.06540201368475258,-13.43450009894902,88.99052519911217
3.326595532940047,-0.06252110893542194,-13.31560837417418,88.92574591539926
3.372873086588689,-0.06375396251766523,-13.20252529467153,88.91638263590869
3.41979442513709,-0.06396314582877173,-13.0696588239658,88.93747749794653
3.467368504525317,-0.06273772198398433,-12.9525548052217,88.91250370597095
3.515604405282983,-0.06457845319198002,-12.82701446500996,88.91534434740952
3.564511334262443,-0.06377299501787063,-12.71433155413676,88.88816445163178
3.614098626396135,-0.06424108798397811,-12.59780724348914,88.92206469495194
3.664375746478333,-0.06371489907943938,-12.46825608277472,88.91582864178584
3.715352290971728,-0.06623010290248571,-12.35190952813167,88.87960789331073
3.767037989839089,-0.06277144422355363,-12.23321866179059,88.87431653747272
3.819442708400468,-0.06377198283192102,-12.10884890040115,88.86707014938064
3.872576449216173,-0.06183322852676129,-11.99176040739681,88.85044554641036
3.926449353996001,-0.06193384442093255,-11.87491723572877,88.86287827617042
3.981071705534974,-0.06597420259632496,-11.75051440145237,88.8421857839067
4.036453929676053,-0.06350738812312699,-11.63638657677186,88.82279084886903
4.09260659730011,-0.0627589801696801,-11.51711083622248,88.80560782754964
4.149540426343632,-0.0654850503228334,-11.39136893480608,88.80172748735646
4.207266283844442,-0.06372382037591906,-11.27103690822627,88.75383627628031
4.265795188015931,-0.06449658766289695,-11.1447669814354,88.77085772134777
4.325138310350089,-0.06491490042910385,-11.03520956294285,88.76442268319501
4.385306977749861,-0.06573181820105617,-10.90569403066727,88.74149131692974
4.446312674691089,-0.06394195075212154,-10.79275671089802,88.70935924355068
4.508167045414605,-0.06316238715845164,-10.67611407300021,88.71721993513761
4.570881896148753,-0.06334350688587172,-10.55251976123818,88.71279434476759
4.634469197362884,-0.0638517853459538,-10.42867625833288,88.67131671493303
4.698941086052156,-0.06242989202274581,-10.31380510659483,88.67595836778224
4.764309868054161,-0.06451057088346515,-10.19045142217102,88.67817913097208
4.830588020397728,-0.06383820556447985,-10.07600958836837,88.65764673065804
4.897788193684466,-0.06436017283454692,-9.951261057044004,88.6394138653019
4.965923214503363,-0.06456446887710283,-9.834350457895818,88.58772022222968
5.035006087879053,-0.06374764366603113,-9.711348830265475,88.5984961919971
5.105049999754065,-0.06363917418914172,-9.585198938345357,88.57351210677882
5.176068319505681,-0.06439552684997643,-9.472290250266838,88.56055104922507
5.248074602497728,-0.06400580780293616,-9.342993398713869,88.55998034321303
5.321082592667947,-0.06392420584120695,-9.225880671080137,88.53832286033051
5.395106225151279,-0.06307011151652174,-9.105359064287498,88.5254992504304
5.470159628939721,-0.06513645511401896,-8.984278345474459,88.54931638296654
5.54625712957911,-0.06371753592207559,-8.861652639514016,88.46724940154347
5.623413251903497,-0.06299872970650615,-8.744034788823479,88.47426783422628
5.701642722807478,-0.06390227066867493,-8.620880799308187,88.47710809505895
5.780960474057187,-0.06377180545177641,-8.497318157910851,88.42388285852161
5.861381645140291,-0.06439498270272812,-8.379379654207774,88.42498076360548
5.942921586155733,-0.06399858071797734,-8.259512102417048,88.416014889184
6.02559586074358,-0.0646764681019337,-8.135433369638186,88.35358058892703
6.109420249055726,-0.06434428420588775,-8.015285333625886,88.35328863105786
6.194410750767818,-0.06507537445120207,-7.896408860328361,88.32922033072046
6.280583588133187,-0.06332694428375289,-7.774335541090826,88.31219271268611
6.367955209079161,-0.06450329288069785,-7.655155820969596,88.3194237846382
6.456542290346563,-0.06412467020938373,-7.534725902200242,88.29665493440076
6.546361740672753,-0.06337005273691815,-7.408533588906163,88.25835134785265
6.637430704019097,-0.06505540168302118,-7.286465097661756,88.26194347744675
6.729766562843182,-0.06611356824495969,-7.166331884794093,88.21698749013605
6.823386941416704,-0.06361800922388761,-7.046780725527628,88.20490511560411
6.918309709189369,-0.06426357048456655,-6.928693679222405,88.15007679199704
7.014552984199721,-0.06384494411690578,-6.802598043781813,88.14023523057686
7.112135136533295,-0.06440766265375356,-6.678633091742642,88.11499268252749
7.211074791829005,-0.06577542939053853,-6.565537904005661,88.10389336008939
7.31139083483418,-0.06301085789706976,-6.43879352371337,88.0729375242298
7.413102413009184,-0.06378398222986725,-6.316490776152448,88.077620836748
7.51622894018206,-0.06353609237644578,-6.193028851641054,88.02722068814757
7.62079010025413,-0.06525434633077304,-6.073300152741736,88.00122621849694
7.72680585095703,-0.06499323099912319,-5.95077042505615,87.99656791043029
7.834296427662129,-0.06439149741652003,-5.828108476266621,87.93526861391456
7.943282347242821,-0.06444211829907903,-5.709400838737805,87.93348435906177
8.053784411990677,-0.06337274743224348,-5.583379848249555,87.90339556948402
8.165823713585931,-0.0658107471355508,-5.459179763123755,87.86815014556691
8.279421637123352,-0.06464518962157975,-5.334437760761876,87.82169103213253
8.394599865193982,-0.06504400074952638,-5.208964376396194,87.82337078406562
8.511380382023777,-0.06539303668221562,-5.0853869913752,87.78379166553398
8.62978547766971,-0.06417023286657045,-4.971261689010547,87.75783935487698
8.749837752274374,-0.06623982840702844,-4.843141244041121,87.73765794041019
8.871560120379616,-0.06457557505844787,-4.720142701489479,87.70195715654847
8.994975815300364,-0.06523329137511971,-4.597317252697136,87.671081679042
9.120108393559105,-0.06533176577888158,-4.477213594528219,87.6293131949578
9.246981739382239,-0.06572521651136116,-4.35167874594819,87.59641365278901
9.375620069258812,-0.06346380039536156,-4.234480373300141,87.57029709801988
9.50604793656283,-0.06577498694105643,-4.111971600104017,87.51735796884549
9.638290236239714,-0.06347957492776776,-3.988027860584127,87.51422015620635
9.772372209558123,-0.06466781654854577,-3.864829599488614,87.47222879162805
9.908319448927685,-0.06485085004371854,-3.74178244945401,87.42411466330094
10.04615790278396,-0.0639582757923145,-3.617205733138387,87.37454412650753
10.18591388054118,-0.06488966584890812,-3.499059606437285,87.33783393822353
10.32761405761399,-0.06347545764751739,-3.37471387152506,87.31152608669305
10.47128548050901,-0.06375813019677398,-3.251744947523048,87.28416231728431
10.61695557198726,-0.06552096687469894,-3.128554306927033,87.23812132258851
10.76465213629836,-0.06433902715161392,-3.003077638245675,87.19702986758716
10.91440336448757,-0.06367266748347657,-2.881211017182329,87.1601559946611
11.06623783977667,-0.06376909786315915,-2.754282590744753,87.12768227956701
11.22018454301964,-0.06472007394705893,-2.628856029541464,87.08028552598324
11.37627285823432,-0.06502959237653515,-2.505311548382361,87.03263731132802
11.53453257821093,-0.06494884757202241,-2.382497452730634,86.98629721684081
11.69499391019872,-0.06563981542421882,-2.258023956926746,86.95840548764983
11.85768748167161,-0.06460922852819909,-2.13636804776245,86.90689524990215
12.02264434617414,-0.06344031843709957,-2.01164501434665,86.85178905860445
12.18989598924867,-0.06259232238611243,-1.885741823078102,86.83200977091715
12.35947433444511,-0.06390991703966326,-1.765302527541663,86.74906819008575
12.53141174941417,-0.06503230515792612,-1.638957864960264,86.71664762974996
12.70574105208543,-0.06279650441962037,-1.513640689540964,86.64854126762157
12.88249551693135,-0.06563007619795362,-1.38723090537257,86.61626472268983
13.06170888131842,-0.06592554787169573,-1.263039428238765,86.57015368048154
13.24341535194666,-0.06463212648341424,-1.136570237755648,86.51931190610097
13.42764961137865,-0.06366027151403093,-1.013549025268552,86.4285000535142
13.61444682465951,-0.06479463627327761,-0.8848903025873812,86.405304656201
13.80384264602886,-0.06333814298293955,-0.7589677023013295,86.34851578236632
13.99587322572619,-0.06416354146816113,-0.6350724051715323,86.2854544004183
14.19057521689093,-0.06436285731700725,-0.5054242582433934,86.23805525394746
14.38798578255847,-0.0646570405594092,-0.3808504953440139,86.1728956398846
14.5881426027535,-0.06517660662135284,-0.2563442362093708,86.11380313220593
14.79108388168209,-0.06567757308919962,-0.1297699969613844,86.05200336227006
14.99684835502375,-0.0647050906825256,-0.006089166602167026,85.98551789877375
15.20547529732497,-0.06515258180888028,0.1214068516369011,85.93970180715542
15.41700452949561,-0.06450131952711724,0.2492437520973198,85.85736574917098
15.63147642640956,-0.06635841250042165,0.3786606913877939,85.80309073806217
15.84893192461115,-0.06361489601510993,0.5056962842123707,85.74440108070291
16.06941253012879,-0.06401243849391047,0.6330856361409538,85.64956139597471
16.29296032639724,-0.06377780516019946,0.7575652432248647,85.58306994002695
16.51961798229017,-0.06507239013226401,0.8868373848543212,85.51179763259667
16.74942876026437,-0.06511013358640895,1.013662281964395,85.44510893117362
16.98243652461744,-0.06437789605341444,1.143250965123621,85.35634652243345
17.21868574986007,-0.06550896804559629,1.27258111817418,85.26558833762495
17.45822152920504,-0.06572334569287691,1.40127917224021,85.21854049506433
17.70108958317421,-0.06395555795865156,1.529731957156397,85.13568508915557
17.94733626832527,-0.06397553302729701,1.659465490314808,85.06112639261383
18.19700858609984,-0.06579914756068295,1.789448060748408,84.96697300043556
18.45015419179474,-0.06482892691265758,1.919883833339539,84.88954130587146
18.706821403658,-0.06416479055195666,2.04964115465047,84.81616018923505
18.96705921211147,-0.06385469076014816,2.180088330143683,84.71954667405799
19.23091728910159,-0.06567985083220806,2.311805974774678,84.63659117548858
19.49844599758045,-0.06579058315866644,2.441495342366995,84.54715925019087
19.76969640111861,-0.0650519153364357,2.570951308978784,84.45298132120897
20.04472027365161,-0.06463111063456589,2.70092815076161,84.36781327401759
20.32357010936222,-0.06455275639451952,2.835249054548597,84.26829575265083
20.60629913270001,-0.06378362046489605,2.966562682144503,84.14947381321988
20.8929613085404,-0.06322295622894422,3.09618002293224,84.06680459048758
21.18361135248502,-0.06276679857044014,3.231469547351117,83.9505663470012
21.47830474130534,-0.06301277241854612,3.363442229896798,83.83763467520015
21.77709772353159,-0.06534992822467249,3.500677902781776,83.72782411984217
22.080047330189,-0.06355008971174973,3.630589305021028,83.62530219384824
22.3872113856834,-0.06419067491030701,3.764218431270214,83.52773468893821
22.69864851883822,-0.06410314192649018,3.900016307150422,83.40000719996608
23.01441817408509,-0.06382988040825957,4.033027501552427,83.293202121467
23.33458062281003,-0.06289601601268224,4.166027273123304,83.16181598479567
23.65919697485759,-0.06394965426646723,4.302267006118121,83.02988336795173
23.98832919019491,-0.06433196138074156,4.441439115300311,82.92432241956371
24.32204009073816,-0.06270821987680196,4.576867530974286,82.82640999725727
24.6603933723434,-0.06477448002570534,4.713751994194436,82.64681369045934
25.00345361696432,-0.0634001150129354,4.847368496347197,82.52228915416514
25.35128630497908,-0.06480267304551392,4.984983258676369,82.37924968420623
25.70395782768865,-0.06486030971494754,5.119458734293636,82.23840433600145
26.06153549998896,-0.06350028820741711,5.260925321196005,82.09024255582727
26.42408757321947,-0.06426869631548664,5.396208762596672,81.96006650458813
26.79168324819033,-0.06495665592342659,5.536689726284814,81.78269089981603
27.16439268839084,-0.0647500548752835,5.673805385360241,81.64642609408325
27.54228703338168,-0.06576477005429597,5.817555888575993,81.49006342785165
27.92543841237339,-0.0635482449886544,5.954403699190827,81.32387863980512
28.3139199579938,-0.06344177979912068,6.09114740098799,81.1668658932374
28.70780582024692,-0.06375839946053433,6.235244624484373,80.98341603926782
29.10717118066607,-0.06430734995284462,6.376128105881098,80.80077190129077
29.51209226666387,-0.06290637166733012,6.519038628938606,80.62490876939091
29.92264636608191,-0.06492534453471034,6.661425667398218,80.44030124956765
30.33891184194272,-0.06552421929014873,6.807876000252006,80.24902255063279
30.7609681474071,-0.06408620137619432,6.950016312256309,80.05758531153843
31.18889584093938,-0.06364145082343865,7.094708460521061,79.85994390105523
31.62277660168381,-0.06431844306098503,7.242381929120576,79.65315144306874
32.06269324505467,-0.06459538859503647,7.387308303884747,79.44663949326095
32.50872973854346,-0.06231178959045715,7.530742276001567,79.26205197715305
32.96097121774579,-0.06463845356748152,7.676757233629722,78.99752996284843
33.41950400261144,-0.06360401280670998,7.82576646647282,78.79987503299714
33.88441561392028,-0.06406877452046787,7.974709997784641,78.56386745237297
34.35579478998748,-0.06375124786146803,8.119773586982625,78.32774463614606
