#Digilent WaveForms Network Analyzer - Network
#Device Name: Discovery2NI
#Serial Number: SN:210321AD1509
#Date Time: 2021-12-22 09:25:05.754

Frequency (Hz),Channel 2 Magnitude (dB),Channel 2 Phase (deg)
1.000000000000001,-12.31367246210158,28.9024293525204
1.004615790278397,-12.10956752115698,28.40867258721086
1.009252886076686,-12.03507601968395,28.23333230523928
1.01391138573668,-11.75501730478396,27.10875107037652
1.018591388054118,-11.65143060091319,27.09230620133837
1.023292992280755,-11.56709233778497,26.83526999169825
1.028016298126475,-11.55418842305135,26.94797250022427
1.032761405761399,-11.5751224586424,27.15548887107336
1.037528415818014,-11.6732023127785,27.73750211157156
1.042317429393305,-11.52814060150735,27.21016058555048
1.047128548050901,-11.52874208451284,27.33109553562119
1.051961873823223,-11.49992501787805,27.51734404566989
1.05681750921366,-11.2923002073952,26.83970144986311
1.061695557198726,-11.32712271714575,27.12766986673881
1.066596121230259,-11.33419642775655,27.2969416496918
1.071519305237607,-11.11113872439033,26.4982325536896
1.076465213629836,-11.11157872389546,26.73052563754179
1.081433951297939,-11.16562618937381,27.02847455841477
1.086425623617067,-10.9277549965894,26.26596549359718
1.091440336448758,-10.93987615126214,26.49349634303232
1.096478196143186,-10.88872087023826,26.44884743092257
1.101539309541416,-10.85126834025077,26.32281327805515
1.106623783977668,-10.79619584841956,26.38843530918456
1.111731727281592,-10.67140025909688,26.06318341172351
1.116863247780562,-10.69426440325077,26.18112057305498
1.122018454301965,-10.67225031219581,26.40205953589171
1.127197456175512,-10.73292646531298,26.68089442964632
1.132400363235558,-10.60648218212988,26.38145259682209
1.137627285823432,-10.47105542425292,26.06008496073507
1.142878334789772,-10.43301517660497,25.94982507458744
1.148153621496884,-10.54262365321881,26.47132211407906
1.153453257821093,-10.49611012633816,26.48909782738559
1.158777356155128,-10.6224085223625,27.13052624658793
1.164126029410492,-10.54084390961971,27.06891774635345
1.169499391019871,-10.50985184126953,26.86867496881545
1.17489755493953,-10.40917902374336,26.73364578474066
1.180320635651731,-10.46373165481314,27.06719368727715
1.185768748167161,-10.34705566483768,26.86752841874399
1.191242008027376,-10.14424927920229,26.11157816957417
1.196740531307244,-10.0826203891266,26.14939210200381
1.202264434617413,-9.949779079392265,25.7909221724232
1.207813835106781,-9.901537756376744,25.72923037632319
1.213388850464979,-9.856639529973473,25.74182246216687
1.218989598924867,-9.857603384589108,25.83020579148231
1.22461619926505,-9.729096871590029,25.46468897225503
1.230268770812382,-9.746689899149985,25.65150255488746
1.235947433444511,-9.77333444278193,25.9535946239282
1.241652307592412,-9.721385110444778,25.87765709596312
1.247383514242945,-9.72823749878912,26.10239820655687
1.253141174941417,-9.655847497073715,26.00294155504412
1.258925411794169,-9.492686151908533,25.53972307656923
1.264736347471152,-9.378682306445166,25.17054425637258
1.270574105208542,-9.396624409332055,25.33530849809404
1.276438808811345,-9.400010481626651,25.54853059543228
1.282330582656023,-9.404777691002591,25.75335027369013
1.288249551693135,-9.43526943051806,25.92615976357573
1.294195841449988,-9.389582216954565,25.90489126315566
1.300169578033291,-9.300027294455885,25.73728346336473
1.306170888131842,-9.142011267331089,25.3371671071878
1.312199899019204,-9.191160250308046,25.6395294832797
1.318256738556409,-9.052682410600992,25.24951186282853
1.324341535194666,-9.023938154014967,25.20034607478054
1.330454417978093,-8.974668499737019,25.16048535036918
1.336595516546443,-9.003280983815044,25.43064267116236
1.342764961137864,-8.950265636677235,25.43121307913261
1.348962882591655,-8.932740999863501,25.51599398651906
1.355189412351038,-8.776590327604559,25.05696037150253
1.361444682465951,-8.776419407138933,25.23635155573124
1.367728825595851,-8.714121832516291,25.08995904955498
1.374041975012516,-8.631071798818452,24.95188365845646
1.380384264602885,-8.623860470787481,25.00801662782374
1.38675582887189,-8.567262741106044,24.96124167786549
1.393156802945305,-8.536823817360812,24.97173141572209
1.399587322572619,-8.520855600323964,25.08505691863341
1.406047524129916,-8.606717570221173,25.60444667402473
1.412537544622755,-8.472410664370164,25.21027925994642
1.419057521689093,-8.548462908172482,25.44465471256949
1.425607593602189,-8.487481567332946,25.4812773830578
1.432187899273545,-8.505430573935827,25.75913326543073
1.438798578255847,-8.432471109231169,25.59707861093119
1.445439770745929,-8.522263369344849,26.07215513011869
1.452111617587743,-8.474421115362658,25.96361577476603
1.458814260275349,-8.335825977584157,25.53719469822667
1.465547840955913,-8.373405973415457,25.91546260475705
1.472312502432721,-8.362624839909758,25.9902424089087
1.479108388168209,-8.280571125975131,25.92150737138233
1.485935642287009,-8.289181315400977,26.04218789153492
1.492794409578997,-8.234815016779267,25.94189419136568
1.499684835502374,-8.17314514608247,25.84888726517276
1.506607066186743,-8.109665019980186,25.73208470322378
1.51356124843621,-7.859095100508745,24.90196778138762
1.520547529732497,-7.828289779283296,24.99177838609769
1.527566058238075,-7.791149470524187,24.88434844257293
1.534616982799296,-7.63520887939857,24.56602990524942
1.54170045294956,-7.832913039385926,25.44567941573911
1.548816618912483,-7.907649845987028,25.83824688186992
1.555965631605077,-7.857818027808914,25.77111285015623
1.563147642640955,-7.789750324014044,25.63361062014552
1.570362804333555,-7.815111989032868,25.84016906436531
1.57761126969935,-7.755371447443727,25.82250267183991
1.584893192461114,-7.621788511139441,25.49926876132238
1.592208727051172,-7.596356965395902,25.52208541127229
1.599558028614671,-7.630093814441288,25.76314180911595
1.606941253012879,-7.61362243413041,25.81182102860345
1.614358556826489,-7.609427432637808,25.97103181727493
1.621810097358932,-7.512061187298281,25.72405673302174
1.629296032639723,-7.466136481962744,25.72707776652624
1.63681652142781,-7.575351709284275,26.29872852612156
1.644371723214932,-7.552640394509131,26.24250058332548
1.651961798229016,-7.493073820962728,26.16220942758002
1.659586907437563,-7.395181573507875,26.0273217750247
1.667247212551064,-7.434117278857317,26.35490918274167
1.674942876026438,-7.350114908004701,26.09212794768172
1.682674061070469,-7.254077324430533,25.89768714492506
1.690440931643265,-7.286057132215143,26.15724508584715
1.698243652461746,-7.235828519506499,26.15609031865581
1.706082389003126,-7.260019194467269,26.35042692344446
1.713957307508427,-7.24492471998774,26.37103866908664
1.721868574986008,-7.118255111643773,26.11263711802604
1.729816359215103,-7.20098678613029,26.48983711947766
1.737800828749376,-7.176414726196888,26.59440198935798
1.745822152920506,-7.24879351438134,27.03540699321181
1.753880501841764,-7.156991911731212,26.86264546347931
1.761976046411631,-7.142877296841682,26.91755915322167
1.770108958317422,-7.126583187242831,26.9891588214179
1.778279410038925,-7.016240759916029,26.68118601824114
1.786487574852052,-6.98695232866277,26.69562051235559
1.794733626832528,-6.882702679292497,26.46349801914586
1.803017740859572,-6.977262802343991,26.92533194392503
1.811340092619604,-6.843722195664814,26.53578013257965
1.819700858609984,-6.903643414974521,26.91660371570357
1.828100216142745,-6.775269777928562,26.61187773652389
1.836538343348347,-6.798224521108224,26.84154922591851
1.845015419179476,-6.798871470564382,27.01847835472778
1.853531623414814,-6.840251843246353,27.2894282424409
1.86208713666287,-6.799607775695592,27.28776714718629
1.870682140365802,-6.739515523934357,27.20652418203746
1.87931681680327,-6.730628406058009,27.30234587943541
1.887991349096295,-6.708730931695444,27.33257649185624
1.896705921211148,-6.686994287909421,27.39616660749752
1.90546071796325,-6.579653297805665,27.15645276285414
1.914255925021088,-6.556837477812593,27.23536418411673
1.923091728910159,-6.51466515326802,27.1186511701179
1.931968317016926,-6.489636291540945,27.26242393159166
1.940885877592779,-6.505611660501749,27.37452635224616
1.949844599758048,-6.479401849487809,27.52381538067928
1.958844673505991,-6.477654920712778,27.62581819587891
1.967886289706847,-6.44145906856328,27.59512932192528
1.976969640111862,-6.474378885803784,27.97513069769519
1.986094917357372,-6.40191965814018,27.85989698461555
1.995262314968881,-6.355619782321959,27.76950533439438
2.004472027365163,-6.352660751105183,27.94139518018764
2.01372424986239,-6.33748628400328,27.96621536933197
2.023019178678274,-6.308947681478866,28.00868679857753
2.032357010936223,-6.283524900903153,28.08564589900997
2.04173794466953,-6.16440263491461,27.63614595274845
2.051162178825567,-6.141663858374134,27.74579082839224
2.060629913270003,-6.143586536978692,27.97003136505649
2.070141348791044,-6.146925350034698,28.12405926341339
2.079696687103698,-6.124220503555388,28.05822595104378
2.089296130854041,-6.02822299394157,27.86129769617477
2.098939883623524,-6.032897687136712,28.06783826811181
2.108628149933291,-5.951393262421039,27.82783514802418
2.118361135248504,-5.948710796125805,28.02629789709079
2.128139045982714,-5.896363876116392,28.00477228076736
2.137962089502235,-5.940058385869901,28.18026998227076
2.147830474130536,-5.975581444428634,28.65608781937429
2.157744409152667,-5.93880402940038,28.55262080771432
2.167704104819696,-5.897966389065042,28.63065475678549
2.177709772353162,-5.851186137339574,28.49840643344408
2.187761623949554,-5.717156189616746,28.05279118049849
2.197859872784827,-5.729646470564323,28.31518336144077
2.208004733018901,-5.745602355632268,28.55645814391556
2.218196419800219,-5.667167052599199,28.36484900380442
2.228435149270305,-5.632853283861418,28.42465479084527
2.238721138568343,-5.631646880029296,28.45389609822506
2.249054605835783,-5.539756313987565,28.24493186197851
2.259435770220981,-5.584042704299829,28.63193443956783
2.269864851883824,-5.452654202847558,28.28326075266358
2.280342072000419,-5.400314198778152,28.12761276757863
2.290867652767774,-5.391059787932322,28.18125309126162
2.301441817408512,-5.3891276777772,28.49086163074759
2.312064790175596,-5.334327894273957,28.33790714382691
2.32273679635711,-5.234894525845304,28.01590373623748
2.333458062281005,-5.30339635634069,28.51396305618675
2.344228815319922,-5.287699725882543,28.62078637851204
2.355049283896011,-5.235677355549615,28.53167857913785
2.365919697485761,-5.248928144074609,28.7170141682599
2.376840286624878,-5.171910775652878,28.52408733197256
2.387811282913181,-5.166269252095743,28.65501899829814
2.398832919019493,-5.176043113678393,28.86203964948417
2.409905428686596,-5.165816729117703,28.93780255345217
2.42102904673618,-5.231974729533411,29.46510104786479
2.432204009073819,-5.210905287707694,29.47984189373329
2.443430552693974,-5.152108018594946,29.43576819812841
2.454708915685034,-5.091217843404722,29.3841992907241
2.466039337234341,-5.048706261086999,29.23740317832494
2.477422057633286,-5.038476949268771,29.45944532560104
2.488857318282393,-4.915486845162146,29.07969560074608
2.500345361696435,-4.927511477607924,29.33288799210706
2.511886431509582,-4.897031975468549,29.26622747428832
2.523480772480578,-4.868290337263595,29.26596982304478
2.53512863049791,-4.881429501292987,29.51969022140511
2.546830252585042,-4.912461365327949,29.82374340696077
2.558585886905648,-4.907345654693748,29.93467099909833
2.570395782768867,-4.865005657669556,29.96054921630854
2.582260190634598,-4.790668818898287,29.80922804985431
2.594179362118818,-4.769475287239469,29.8307521167787
2.606153549998897,-4.756159744144318,30.04202220291486
2.618183008218987,-4.75057614719432,30.08293637293778
2.630267991895384,-4.755182446924906,30.28777536587222
2.64240875732195,-4.739765230555991,30.39820406544968
2.654605561975542,-4.72347129627142,30.482205235273
2.666858664521483,-4.700152730029076,30.53554947034888
2.679168324819034,-4.640032555484249,30.4998920326513
2.691534803926916,-4.642740247516114,30.62193221124055
2.703958364108846,-4.599769070327739,30.56814941232146
2.716439268839086,-4.602972364875694,30.78611121499852
2.728977782808043,-4.556289654428098,30.73796611855952
2.741574171927887,-4.543036897522624,30.8542668477435
2.754228703338169,-4.468869413088983,30.6924535516019
2.766941645411513,-4.384192248637032,30.47349021009535
2.779713267759291,-4.365052428859847,30.58511988079657
2.792543841237342,-4.328462147334859,30.45706407458806
2.805433637951716,-4.316687816132248,30.62373030807308
2.818382931264458,-4.273802443258364,30.63044899165708
2.831391995799382,-4.241326506296573,30.53863818636863
2.844461107447917,-4.194998119194289,30.52240097076255
2.85759054337495,-4.11580963738079,30.27068811225702
2.870780582024695,-4.133037390510901,30.59053488301317
2.884031503126609,-4.109334831919144,30.68292702913756
2.897343587701327,-4.129543849481372,30.95302002387675
2.910717118066608,-4.119510873374339,31.01357389340903
2.924152377843336,-4.108431053614018,31.14026701015393
2.937649651961534,-4.095082165533513,31.32008516254839
2.95120922666639,-4.11943751430129,31.61859732569202
2.964831389524345,-4.077875995580641,31.65331952261553
2.978516429429194,-4.018264834922422,31.45826503299418
2.992264636608192,-4.06461573091747,31.85314171094987
3.006076302628232,-4.036424103595047,31.91356095985076
3.019951720402019,-4.01623551271503,31.98157473042971
3.033891184194275,-3.969007838281167,31.87724497036901
3.047894989627986,-3.980509149717392,32.13644300363488
3.061963433690682,-3.976280872724658,32.3452812302888
3.076096814740711,-3.926330228806416,32.25620260675678
3.090295432513592,-3.86967003709497,32.16008400912619
3.104559588128359,-3.84545833007248,32.19645501840201
3.118889584093939,-3.837453879944977,32.34166364697357
3.133285724315589,-3.809123162840441,32.4472822794194
3.14774831410132,-3.768253736330601,32.3394260454188
3.162277660168383,-3.806587643022587,32.75090803241571
3.176874070649772,-3.747598658605344,32.61884439731692
3.191537855100765,-3.729984868652625,32.73513302331658
3.206269324505468,-3.700359243199343,32.77563808551673
3.221068791283438,-3.631660790674171,32.6551905498856
3.235936569296288,-3.636237730734954,32.75866447534887
3.250872973854347,-3.596827814853313,32.85738856608838
3.26587832172336,-3.626836267711791,33.11984886654081
3.28095293113119,-3.572879036266983,33.01893074681453
3.296097121774579,-3.553740604820979,33.17931595469875
3.311311214825914,-3.539452413836135,33.15889216402697
3.326595532940047,-3.508144066403645,33.21143672953315
3.341950400261146,-3.485761757345019,33.28207350946042
3.357376142429549,-3.468263520225713,33.34214520717936
3.372873086588689,-3.460293335200397,33.56516377611699
3.388441561392027,-3.426895407699825,33.53657841837506
3.404081897010013,-3.364352539412759,33.42942065843425
3.41979442513709,-3.351326326720236,33.54756002353868
3.43557947899875,-3.340974198409776,33.69747721863438
3.451437393358564,-3.328775454833543,33.7644144160895
3.467368504525317,-3.27731120065097,33.78202101243505
3.48337315036012,-3.264957368346178,33.87719247288081
3.499451670283577,-3.267844662605579,34.0755996578807
3.515604405282983,-3.196772460326944,33.94422663064938
3.531831697919574,-3.172427428123932,33.90124200580645
3.548133892335757,-3.15190931188583,33.98507099340056
3.564511334262443,-3.09808906998339,33.88525671872893
3.580964371026362,-3.155074593528556,34.44009754980969
3.597493351557427,-3.139624404663452,34.59731712700075
3.614098626396135,-3.123341533145225,34.74932927330499
3.630780547701018,-3.083850777579066,34.60768543952598
3.64753946925608,-3.038345254108461,34.65219159419379
3.664375746478333,-3.044337620262757,34.79466195280989
3.681289736425317,-3.005686119086366,34.76588075826442
3.698281797802666,-2.969392622393916,34.81147541002895
3.715352290971728,-2.955799943955169,34.97026791897426
3.73250157795721,-2.958528010577114,35.21312332972273
3.749730022454838,-2.902982622121802,35.11420705574739
3.767037989839089,-2.885391728410796,35.15320960460546
3.784425847170935,-2.863469123306742,35.30714335926264
3.801893963205617,-2.851389965787088,35.39084225162988
3.819442708400468,-2.79424492631204,35.31785350663703
3.837072454922792,-2.772183392606217,35.35949518504707
3.854783576657721,-2.745628556249185,35.34656006575138
3.872576449216173,-2.691928013671761,35.27478396009303
3.890451449942809,-2.707416336662812,35.59457783812337
3.908408957924025,-2.638891149092553,35.39937861067125
3.926449353996001,-2.604021707895649,35.36448922726751
3.944573020752789,-2.610496611357015,35.68796329912222
3.962780342554397,-2.592057266545595,35.74304339810769
3.981071705534974,-2.59496987556934,36.00868059539251
3.999447497610977,-2.556545337383733,35.89835462733594
4.017908108489404,-2.556621028271747,36.15295032760154
4.036453929676053,-2.529646797875556,36.16760467023389
4.055085354483843,-2.477776604396833,36.19798917263978
4.07380277804113,-2.447114714452098,36.12094093151555
4.09260659730011,-2.383935269094577,36.04288551561417
4.111497211045225,-2.380784148831236,36.1581263762037
4.13047501990162,-2.338596671364072,36.11732762388962
4.149540426343632,-2.327752448212236,36.21498298136838
4.16869383470336,-2.290554439558398,36.24555586424943
4.187935651179187,-2.293460434378333,36.432966264996
4.207266283844442,-2.270312144785344,36.48603454244662
4.226686142656034,-2.236762889986434,36.47452070454116
4.246195639463135,-2.228409469845849,36.76688328855673
4.265795188015931,-2.157344727045221,36.46139518938659
4.285485203974401,-2.177098928412404,36.83308556910166
4.30526610491711,-2.116464546624106,36.54031820515233
4.325138310350089,-2.093399103980544,36.76925604340519
4.345102241715718,-2.090201237362322,36.88470410116129
4.365158322401665,-2.058589265060306,36.9962784955792
4.385306977749861,-2.01427019895726,36.91043862160848
4.405548635065538,-1.944710957808096,36.65210014146821
4.42588372362627,-1.925728537029826,36.75124077928814
4.446312674691089,-1.906226007413974,36.83847070204885
4.466835921509634,-1.888459400674312,36.93582780588456
4.487453899331328,-1.818859948845047,36.72179606720824
4.508167045414605,-1.833010748164938,37.01062163751293
4.528975799036213,-1.791037774721611,37.03964408079018
4.549880601500489,-1.754827079210288,36.94926978482492
4.570881896148753,-1.722962308083112,37.0025318745793
4.591980128368689,-1.700579828581663,37.05957950913731
4.6131757456038,-1.712352981510962,37.28073585224632
4.634469197362884,-1.687731409145168,37.36030741157846
4.655860935229596,-1.646777368148171,37.37368670723093
4.677351412871986,-1.615263463294334,37.39041825956469
4.698941086052156,-1.604686392647635,37.57261976041764
4.72063041263591,-1.564851489263907,37.5378893343528
4.742419852602453,-1.547090699166988,37.65409811190983
4.764309868054161,-1.522259613601809,37.65801175912868
4.786300923226389,-1.500159601094582,37.72662771177573
4.80839348449729,-1.459543319548607,37.7511628401387
4.830588020397728,-1.432827989700711,37.80123139392697
4.852885001621215,-1.390844629174047,37.68446423146995
4.87528490103387,-1.361792898340172,37.59440295452161
4.897788193684466,-1.378934913880324,38.1168000998689
4.920395356814517,-1.313032826508232,37.80372357945343
4.943106869868359,-1.27351629102195,37.72756593853694
4.965923214503363,-1.266619517605424,37.9620400427134
4.988844874600127,-1.205878939444697,37.80211400182628
5.01187233627273,-1.160901432266763,37.59796977793692
5.035006087879053,-1.185995405886443,38.01586102199019
5.058246620031148,-1.1550291894008,38.0776151254402
5.08159442560561,-1.113549067657268,38.1179598039074
5.105049999754065,-1.113731151856132,38.33731517539898
