#Digilent WaveForms Network Analyzer - Bode
#Device Name: Discovery2NI
#Serial Number: SN:210321AD1509
#Date Time: 2021-10-17 12:33:00.026
#Start: 10 Hz
#Stop: 1e+06 Hz
#Steps: 1001
#Wavegen: Wavegen C1
#Amplification: 1 X
#Settle: 10 ms
#MinPeriods: 16 
#Channel: Channel 1
#Range: 5.49264 V
#Offset: 0.000293069 V
#Relative: no
#Channel: Channel 2
#Range: 5.52637 V
#Offset: 0.000302154 V
#Relative: yes

#Frequency (Hz),Channel 1 Magnitude (dB),Channel 2 Magnitude (dB),Channel 2 Phase (deg)
10,-0.004794809755434433,-38.38255225422675,88.48285721768983
10.11579454259898,-0.004956154176063496,-38.27719891090538,88.44915343358846
10.23292992280754,-0.004808047916847199,-38.18324864567563,88.42094478505379
10.35142166679343,-0.004847102320195903,-38.08245117436624,88.40753360255307
10.47128548050899,-0.004726209106172661,-37.98479538674822,88.39958146502403
10.5925372517729,-0.004900109097111404,-37.89819783476693,88.40104234352455
10.71519305237607,-0.004861288205267436,-37.78694534208948,88.36183411472305
10.83926914021204,-0.004866447364299903,-37.68854800033282,88.3701371441377
10.96478196143185,-0.00486027625432232,-37.58730654032261,88.29966496323493
11.09174815262401,-0.004958221447019392,-37.48959718879841,88.3260898930625
11.22018454301963,-0.004883304937942514,-37.39873782744507,88.28854362259952
11.35010815672314,-0.005034715868481751,-37.29395001695376,88.27047418136408
11.48153621496884,-0.00489970291483295,-37.19692803012813,88.26949475827634
11.61448613840344,-0.004817796603483868,-37.09349108154407,88.2304233709007
11.7489755493953,-0.004908613321392771,-36.99758683952441,88.20590383409842
11.88502227437019,-0.004750565150929054,-36.90116636347491,88.18768089426241
12.02264434617413,-0.004826139901605511,-36.79601492138543,88.16905364576775
12.16186000646368,-0.00483043441987953,-36.69877376309815,88.14497712409867
12.30268770812381,-0.004806607759706916,-36.60114300946567,88.15032912728849
12.44514611771384,-0.004655344876453704,-36.50374000735188,88.11317364556847
12.58925411794166,-0.004853344191358996,-36.40695047561363,88.08405648043011
12.73503081016663,-0.004813124757388865,-36.30850439146031,88.07362960882296
12.88249551693135,-0.004829495074039966,-36.20715129280249,88.04730326673746
13.031667784523,-0.004731509462142008,-36.10868536392277,88.02380786373871
13.18256738556407,-0.00486665358247009,-36.00635351611529,87.99632696132582
13.33521432163324,-0.004709710110051875,-35.90795746013411,87.97543881565764
13.48962882591653,-0.004736390196342584,-35.80764751944295,87.95639717904041
13.64583136588924,-0.004698280682718393,-35.7107329554837,87.93402219352021
13.80384264602887,-0.004681623914627799,-35.6096386626879,87.92094888011573
13.96368361055939,-0.004719332192374687,-35.50520538349834,87.88975777676919
14.12537544622755,-0.004787311350192634,-35.40800548861474,87.88209013532614
14.28893958511104,-0.004593560557856047,-35.30553638086794,87.84508901280323
14.45439770745928,-0.004643441722691716,-35.20838408379099,87.81232759349371
14.62177174456718,-0.004772583834455982,-35.10943499915579,87.78589671737498
14.79108388168207,-0.004677829021236512,-35.00665632693944,87.76354862388033
14.96235656094433,-0.004800181839203323,-34.90410486944018,87.73809123282385
15.13561248436207,-0.004860947602131148,-34.80239100417656,87.74594565467116
15.31087461682032,-0.00497808978599001,-34.70213565313102,87.72410647056691
15.48816618912483,-0.005041646531217729,-34.60429381826142,87.6701987318534
15.6675107010815,-0.005069080751845365,-34.5027233965643,87.63544068779663
15.84893192461114,-0.004783741550930133,-34.40640016922031,87.60273269894067
16.03245390690042,-0.004852447565162264,-34.30490365591184,87.5826154350931
16.2181009735893,-0.004802947350889045,-34.20586458015321,87.57695494736012
16.40589773199539,-0.004848690695362976,-34.10652243154149,87.5396128597086
16.59586907437563,-0.00485063059716437,-34.00479889816172,87.49727294490665
16.78804018122563,-0.004943493097468989,-33.90242434142502,87.48157389912267
16.98243652461746,-0.004885728994398052,-33.80631236732751,87.47119112017134
17.17908387157589,-0.005055469311281884,-33.70513052138144,87.41848398257737
17.37800828749376,-0.005001283444280046,-33.60139883789479,87.40678913201594
17.57923613958693,-0.004963677913523814,-33.50146109357792,87.35990609242212
17.78279410038923,-0.004866745688794543,-33.40194794012982,87.3321075251023
17.98870915128787,-0.004786285760866725,-33.30054231884387,87.30764359828031
18.19700858609983,-0.004434083669230308,-33.20052557999698,87.26434749085213
18.40772001468958,-0.00482010905306573,-33.10083240920058,87.2393319137381
18.62087136662869,-0.004942157564421562,-32.99714085282356,87.20933268053963
18.83649089489802,-0.004934083054555883,-32.89775503153016,87.18366855736035
19.05460717963248,-0.004773189222640678,-32.79523073301121,87.15982019034318
19.27524913190937,-0.004781940030622663,-32.69489459316767,87.1127180543089
19.49844599758046,-0.00476035599907146,-32.59552240368435,87.07976371344162
19.72422736114853,-0.004868997142210797,-32.49333933046528,87.04631056024381
19.95262314968883,-0.004769161949398451,-32.39337686945473,87.02539459159823
20.1836636368156,-0.004726568551349218,-32.29489266449857,86.98119986773267
20.41737944669532,-0.004751155554734113,-32.19562668012904,86.94539633100628
20.65380155810527,-0.004852315908727606,-32.09634929825998,86.9132572000851
20.89296130854041,-0.004867217994539897,-31.99610203933733,86.88870072098143
21.13489039836643,-0.004954463596176357,-31.89447069853827,86.82676349009078
21.37962089502232,-0.004987661318268962,-31.79580373422584,86.81541981668347
21.6271852372702,-0.004777743538347194,-31.69459112770861,86.78136712538701
21.87761623949552,-0.004719069745776513,-31.59459338046541,86.72460935776827
22.13094709605637,-0.004757869945995895,-31.49376187611232,86.70975882327841
22.38721138568342,-0.004772404287766789,-31.39361860687822,86.66623800957264
22.64644307593057,-0.004792804830360268,-31.29242654465142,86.62180137232762
22.9086765276777,-0.004906185190802399,-31.19073365032227,86.58535833368647
23.1739464996848,-0.004963715448478734,-31.09040563921591,86.55015801213062
23.44228815319923,-0.004865504167838453,-30.99195879506628,86.50896879724891
23.71373705661656,-0.00489156491773575,-30.88797375724436,86.46547949937781
23.9883291901949,-0.004912303161242594,-30.78734039002655,86.42352244763791
24.26610095082414,-0.005026222707950585,-30.68760392687035,86.4024867208863
24.54708915685029,-0.005144594686209588,-30.58926648157847,86.36456276770832
24.83133105295568,-0.004894347731674522,-30.48701386951466,86.30357589549621
25.11886431509577,-0.004897280524940966,-30.39037789052314,86.27471763071847
25.40972705549301,-0.004924034850663128,-30.29137891912936,86.22303843713502
25.70395782768864,-0.004742319853995209,-30.18954401690616,86.17996451303692
26.00159563165272,-0.004933002380921665,-30.09189039271046,86.14441919244278
26.30267991895381,-0.004810258728153063,-29.99183419798883,86.08392009473799
26.60725059798808,-0.004917864227606979,-29.89219389820246,86.05809096616991
26.91534803926914,-0.005045091792469727,-29.79144173830595,86.01186390492921
27.2270130807791,-0.004805167668583859,-29.69188001991133,85.96865787671585
27.54228703338163,-0.005051367118089315,-29.59026188449794,85.92197596891245
27.86121168629772,-0.005077905643744505,-29.4924651602142,85.8668355312652
28.18382931264455,-0.004937044817098292,-29.39340704084123,85.82308771064112
28.5101826750391,-0.005051376433374195,-29.29420948682597,85.77259294004794
28.84031503126606,-0.004949839264231913,-29.19436750778543,85.72355182494317
29.17427014001166,-0.00488672250620108,-29.09794262018019,85.67821573185996
29.51209226666384,-0.004827383221875423,-28.99955184293531,85.62622556996014
29.85382618917957,-0.005123248478459854,-28.90132818363782,85.57845613464625
30.19951720402013,-0.004898397353264371,-28.80002484267489,85.5191347963473
30.54921113215509,-0.005022489725060209,-28.7011751098892,85.47390837124648
30.90295432513592,-0.005037860691827158,-28.60383595765191,85.42949971847153
31.26079367123956,-0.005075797978984624,-28.50416686470165,85.37113730501956
31.6227766016838,-0.005135923972802186,-28.40447578413846,85.32372743322003
31.98895109691397,-0.005003325439839104,-28.30694066149375,85.26039641316081
32.35936569296281,-0.005161472952657245,-28.20659777339888,85.21716177569367
32.73406948788379,-0.004999301439610807,-28.10739910600276,85.15722699224361
33.11311214825908,-0.004963653401915097,-28.00782384331924,85.09746690742216
33.49654391578279,-0.004950721527684021,-27.90890503276422,85.04563417197662
33.88441561392028,-0.005045748969386706,-27.81041570014408,84.99130938270893
34.27677865464505,-0.004945909431167754,-27.71159622711641,84.94126304995015
34.67368504525317,-0.004892121597500843,-27.61346145085687,84.88359000438695
35.0751873952568,-0.004906925941942,-27.51366783479017,84.83015041756228
35.48133892335753,-0.00487169495002028,-27.41330805262419,84.76895754254124
35.89219346450049,-0.004960350779014047,-27.31437066266714,84.70110894544032
36.3078054770101,-0.005084697621905971,-27.21399127198682,84.64102624629349
36.72823004980842,-0.004936819339480886,-27.11458357938625,84.58412988919417
37.15352290971727,-0.004948008492760416,-27.01606053399726,84.52084057116356
37.58374042884444,-0.00480463098932841,-26.91749123431274,84.46148336740166
38.01893963205612,-0.00477436064647854,-26.817122450788,84.39302230555656
38.45917820453536,-0.004971839688066988,-26.71828481596218,84.33167311846066
38.90451449942805,-0.004850204525692911,-26.6197885576586,84.26097341066837
39.35500754557772,-0.004945506429922009,-26.52050153358426,84.20071293236033
39.81071705534969,-0.005011419295280283,-26.42272754944535,84.13246303500276
40.27170343254595,-0.005105088181355339,-26.32268897305418,84.06583040840853
40.7380277804113,-0.005086259740127145,-26.22351125228011,84.00030285100111
41.20975190973304,-0.005208704366675429,-26.12318395979367,83.93370986172353
41.68693834703355,-0.004934420301208204,-26.02518145928241,83.86431746314739
42.16965034285822,-0.004867047145683466,-25.92715382040836,83.7963440996017
42.65795188015926,-0.004728326997700568,-25.82765118069972,83.72144652787988
43.1519076827765,-0.00489466474904332,-25.73016886881926,83.64998372082997
43.65158322401657,-0.004763203074363727,-25.63291898928886,83.58086445905273
44.1570447353312,-0.00473174325980234,-25.53339799533539,83.50849708075046
44.66835921509634,-0.004613402763545368,-25.43277447615829,83.44171627633573
45.18559443749226,-0.004804221612305936,-25.3356017216422,83.35408222464676
45.70881896148752,-0.004965673621205071,-25.23816852712479,83.27728875300564
46.23810213992603,-0.004599589873837909,-25.14138788270366,83.21080159065896
46.77351412871981,-0.004694159537478283,-25.04141192203318,83.13766479035984
47.31512589614803,-0.004739680763762734,-24.94415615941116,83.06618880417363
47.86300923226381,-0.004993249326940105,-24.84412211315632,82.97823490776973
48.41723675840999,-0.004906677858623412,-24.74608942549202,82.88822750921875
48.97788193684466,-0.004989045361214538,-24.64982287586421,82.8176207277249
49.54501908047905,-0.004874699830026061,-24.54945246771275,82.74264021399429
50.11872336272725,-0.005013117644259678,-24.45545786572229,82.64619520923566
50.69907082747044,-0.00487061732816411,-24.35251795047276,82.56325533576231
51.28613839913648,-0.005042968989047544,-24.25509819490377,82.47638842600382
51.88000389289609,-0.005017445236126786,-24.15631089552004,82.3949102409459
52.48074602497724,-0.005088497507397074,-24.05841184833036,82.30398711754165
53.08844442309879,-0.00473239672603819,-23.9566311893085,82.23339238723273
53.70317963702532,-0.00499850346462347,-23.86014944261741,82.12501769545754
54.32503314924336,-0.004847918589286991,-23.76324369169541,82.05161699285753
54.95408738576248,-0.004933007703601234,-23.66476097381522,81.94717887941007
55.59042572704038,-0.004850446117586438,-23.56672318967887,81.86447445657964
56.23413251903491,-0.00491328548350897,-23.46721603153795,81.76134542828535
56.88529308438413,-0.004911029106941995,-23.37133582246813,81.68412290669579
57.54399373371567,-0.005041771027336279,-23.27081578683316,81.57715976806318
58.21032177708722,-0.004934472631128203,-23.17243708709562,81.48692521763861
58.88436553555896,-0.004852083087100318,-23.07429542024874,81.39171167153742
59.5662143529011,-0.004936969964287487,-22.97567876808814,81.2878738537509
60.25595860743581,-0.004953283796331981,-22.87776996998081,81.19365763939872
60.95368972401694,-0.004962256796614924,-22.78128170537519,81.10101129163957
61.65950018614822,-0.004897029364789175,-22.68197844073743,80.98662902969122
62.37348354824191,-0.004864519375947424,-22.58444559976881,80.8887315508093
63.09573444801929,-0.004989099835798009,-22.48769686025078,80.78897110869528
63.82634861905483,-0.004888180461202243,-22.38993398454508,80.6794654000765
64.56542290346563,-0.005016204954110025,-22.29158635587243,80.57736199264824
65.31305526474729,-0.004863214341974136,-22.19401856022566,80.47064599711516
66.06934480075965,-0.004844368864109983,-22.09767925238751,80.36249008338282
66.83439175686149,-0.0050135314638282,-22.00038496050336,80.25626713183122
67.60829753919819,-0.005105688328848326,-21.90529795983684,80.14967612223666
68.39116472814293,-0.004942132746430789,-21.80743324851115,80.03630765434835
69.18309709189363,-0.004874835813482195,-21.71064490538564,79.92439984785278
69.98419960022746,-0.00482143938928118,-21.61373291616731,79.81025328196101
70.79457843841388,-0.004980580564238972,-21.51775376923061,79.695161091469
71.61434102129027,-0.00492401832189554,-21.42066303731356,79.57950222558972
72.44359600749891,-0.004746815076922709,-21.32378960846692,79.46005354666052
73.28245331389044,-0.005017135116737239,-21.2268001782351,79.34193581642738
74.13102413009162,-0.00500769613549315,-21.13019242462717,79.22343954616228
74.98942093324558,-0.005013365693503144,-21.03375302545507,79.0939772929087
75.85775750291836,-0.005069179864777291,-20.93753022493306,78.97246098790134
76.73614893618186,-0.004818077078706949,-20.84157544782499,78.85072060447692
77.62471166286912,-0.004952876434864036,-20.7447784943697,78.72893074713332
78.52356346100726,-0.005013458353356003,-20.64841859586565,78.60386883638149
79.43282347242805,-0.004932075278544349,-20.55172272423297,78.47563991624428
80.35261221856177,-0.005149587084414549,-20.45596724492144,78.34607048841285
81.28305161640995,-0.005022055160683658,-20.35960774113597,78.21140596164278
82.22426499470711,-0.005134896922409938,-20.26466070322698,78.08249778128287
83.1763771102671,-0.004996860660780902,-20.16901469953681,77.95043793517587
84.13951416451965,-0.005131271499681983,-20.07365337886452,77.8122885078444
85.11380382023759,-0.005049531105186253,-19.97771612641777,77.67649229327819
86.09937521846017,-0.005104137911616452,-19.8825563698904,77.53994232301527
87.09635899560796,-0.005080069047792859,-19.78732400402316,77.39885517238915
88.10488730080148,-0.00492363039352428,-19.69144401069088,77.25720689810147
89.12509381337441,-0.004842362574627524,-19.59662918813883,77.11625964389073
90.15711376059571,-0.004961350744108532,-19.50109766810306,76.97536085485092
91.20108393559096,-0.004876420205797593,-19.40551865433361,76.83195560329696
92.25714271547629,-0.004871714059549405,-19.31005278825052,76.68095185377987
93.32543007969905,-0.004887026864398281,-19.21417384284215,76.53146954351728
94.40608762859246,-0.004854464633062352,-19.11957352624418,76.38427989455266
95.4992586021435,-0.004810187115833389,-19.02485275023339,76.22942002083522
96.6050878989814,-0.00499133763592461,-18.93016152507505,76.08078608712347
97.72372209558111,-0.004856706969027224,-18.83528581561016,75.92614941514827
98.85530946569391,-0.004900138143622783,-18.74131362565403,75.77249939763792
100,-0.005046983973186711,-18.64625029655086,75.61133591615007
101.1579454259899,-0.005119041535540002,-18.5522709178435,75.45448132924871
102.3292992280754,-0.005159550724028652,-18.45826572661299,75.29190922547268
103.5142166679345,-0.005013932141446413,-18.36363257460824,75.13001969387415
104.7128548050898,-0.005061893619036115,-18.27082336250938,74.96733821276192
105.9253725177289,-0.005069913684749909,-18.17787426481583,74.79978390080643
107.1519305237606,-0.004937507189013873,-18.08434998003638,74.63110412761401
108.3926914021203,-0.004962303881865013,-17.99084700168082,74.4649546687201
109.6478196143185,-0.004827001267120923,-17.89763167952993,74.28991042131686
110.9174815262401,-0.004901089969905673,-17.80565266688869,74.1171090306993
112.2018454301963,-0.004957167456825577,-17.71218307926672,73.94400359151537
113.5010815672314,-0.004914763707437896,-17.6188434822284,73.77062065186281
114.8153621496882,-0.004933191374397876,-17.52684181826433,73.59191109797663
116.1448613840343,-0.005128429485289156,-17.43449216314887,73.41234050383272
117.4897554939529,-0.005083952511984634,-17.34170386651245,73.23177230430697
118.8502227437018,-0.00513174417320899,-17.25029336567103,73.0495937004476
120.2264434617413,-0.005053941825415274,-17.15840142255185,72.8633441669617
121.6186000646368,-0.005124592843733108,-17.06701639031737,72.6738042330979
123.0268770812381,-0.004906893291022883,-16.97529197961839,72.48671410765736
124.4514611771384,-0.004983235001997174,-16.88450310144768,72.29881015280139
125.8925411794166,-0.004941553167353347,-16.79328278786746,72.10522645427446
127.3503081016662,-0.004994992403032846,-16.70211438195204,71.91045365588381
128.8249551693134,-0.004915007051572251,-16.61156227137335,71.71505698138398
130.3166778452299,-0.004969260996582339,-16.52085168008435,71.5174168275676
131.8256738556407,-0.004835530056202206,-16.43061466524014,71.31921105775268
133.3521432163324,-0.004746813163476108,-16.34105183850161,71.11961149861111
134.8962882591653,-0.004833992634826989,-16.2501826421564,70.91180223215206
136.4583136588924,-0.004726962263646273,-16.16008407005344,70.70902783821364
138.0384264602884,-0.00481750113802281,-16.07115105276505,70.50004344940051
139.6368361055938,-0.004717503540821959,-15.98117320206768,70.29477606878856
141.2537544622754,-0.004990132642589339,-15.89258619340559,70.07792333603739
142.8893958511102,-0.005008377630163492,-15.80333660856313,69.87224340037864
144.5439770745928,-0.004969327814622389,-15.71426853849432,69.6538229548681
146.2177174456718,-0.004933176548579198,-15.62577846960602,69.44026682743517
147.9108388168207,-0.00502608794822963,-15.53813850340896,69.21996393794802
149.6235656094433,-0.004987715285260189,-15.45059916761495,69.00264518714286
151.3561248436207,-0.005076314360267053,-15.36193849810783,68.77924379144937
153.1087461682031,-0.005283805297469005,-15.27456482798015,68.55178422038851
154.8816618912481,-0.005203630666160305,-15.18721632825556,68.32420105360065
156.6751070108149,-0.005089620615662302,-15.10077515006793,68.09765932379105
158.4893192461114,-0.0054269192869782,-15.01397189202622,67.86376430670073
160.3245390690042,-0.005280018173722195,-14.92720762992632,67.63581020718425
162.181009735893,-0.005289281377521496,-14.84100673334466,67.4001003302764
164.0589773199539,-0.005192310287354769,-14.75554572650387,67.16524553828886
165.958690743756,-0.005096454625776899,-14.66994910033199,66.92614768262531
167.8804018122561,-0.005266518313208493,-14.58513672333456,66.68920599610149
169.8243652461744,-0.005148177386917041,-14.50001218077746,66.44895297118285
171.7908387157588,-0.005210414700705898,-14.41594332723116,66.20060599330679
173.7800828749376,-0.00544152431964344,-14.33096622216664,65.95288569919754
175.7923613958693,-0.005340922862575308,-14.24734670050318,65.70664021272505
177.8279410038923,-0.00513573611622192,-14.16325366044152,65.458143265579
