#Digilent WaveForms Network Analyzer - Bode
#Device Name: Discovery2NI
#Serial Number: SN:210321AD1509
#Date Time: 2021-10-17 11:22:01.767
#Start: 10 Hz
#Stop: 1e+06 Hz
#Steps: 5001
#Wavegen: Wavegen C1
#Amplification: 1 X
#Settle: 10 ms
#MinPeriods: 16 
#Channel: Channel 1
#Range: 5.49264 V
#Offset: 0.000293069 V
#Relative: no
#Channel: Channel 2
#Range: 5.52637 V
#Offset: 0.000302154 V
#Relative: yes

#Frequency (Hz),Channel 1 Magnitude (dB),Channel 2 Magnitude (dB),Channel 2 Phase (deg)
10,-0.005574963923871113,-38.38571954087621,88.46280939009664
10.02305238077898,-0.005652480695578459,-38.36087113190091,88.49663684546327
10.04615790278395,-0.005796127870073654,-38.33527303859141,88.46469617123108
10.06931668851804,-0.005827480929796301,-38.32576570740598,88.48254921096456
10.09252886076685,-0.005945549027201734,-38.30181468194765,88.4538800745969
10.11579454259898,-0.005812123491249604,-38.27857873292735,88.43421883562623
10.1391138573668,-0.005752588187626075,-38.2612196658477,88.43458964767126
10.16248692870695,-0.005680674168479401,-38.2456767643935,88.44932707820848
10.18591388054117,-0.005757233706441595,-38.22405977269839,88.43720300869343
10.20939483707681,-0.005791016439894102,-38.20252192361747,88.42355912305536
10.23292992280754,-0.005682132610961374,-38.18306219696615,88.43644197781308
10.25651926251408,-0.005761475208411972,-38.16514692786075,88.41512316943297
10.28016298126473,-0.005908436237550357,-38.1457151921387,88.42427469025661
10.30386120441616,-0.005941558591287489,-38.12285497838145,88.41663039459354
10.32761405761398,-0.005938867877938249,-38.10625221649253,88.42198596588689
10.35142166679343,-0.005863558930372178,-38.08439202835498,88.38427975640602
10.37528415818013,-0.005863274462319465,-38.0621672706928,88.44617405670576
10.39920165829058,-0.005657219766471048,-38.04675200547717,88.42879846243716
10.42317429393306,-0.005760842450342417,-38.02559932086407,88.39240245557055
10.447202192208,-0.005655840084526133,-38.00397150886489,88.40370914758527
10.47128548050899,-0.005701620741575368,-37.98792894351251,88.38996727985501
10.49542428652322,-0.005551418054782506,-37.96720979192538,88.42564941200848
10.51961873823224,-0.005783911640389257,-37.94086303294224,88.40686811040798
10.5438689639126,-0.005765357733004659,-37.92837048831305,88.37903712531329
10.56817509213658,-0.005706501956599691,-37.90996056903398,88.41519714028723
10.5925372517729,-0.005920287259657664,-37.9033563815261,88.39532758955156
10.61695557198724,-0.005793674572591207,-37.86879476327221,88.39139288527312
10.64143018224316,-0.00589956814517871,-37.84751523545874,88.36024091300069
10.66596121230259,-0.005865578006103432,-37.83278720506335,88.362494463724
10.69054879222658,-0.005912760342060558,-37.80715705402078,88.34831506058981
10.71519305237607,-0.005715743621293275,-37.79133032277699,88.36312636052155
10.73989412341244,-0.005729600157508972,-37.76395968241636,88.35605182233863
10.76465213629835,-0.00587467891914964,-37.74993051142791,88.35472153674036
10.7894672222983,-0.005775408160789808,-37.72918701769354,88.35344873933482
10.81433951297938,-0.0056827920430192,-37.70856219696612,88.33841032000832
10.83926914021204,-0.005714120024287795,-37.68253873089186,88.33540736209343
10.86425623617064,-0.005782173950585882,-37.67410421667761,88.357484522036
10.88930093333433,-0.005626186208438549,-37.64771284272329,88.32800479463158
10.91440336448757,-0.005658057841828678,-37.62533517184677,88.33502477725978
10.93956366272093,-0.005588442669604878,-37.61339233147454,88.31534435516032
10.96478196143185,-0.005599335565847282,-37.59171282536392,88.33541975495783
10.99005839432522,-0.005618528529649888,-37.5711495979101,88.32842241503383
11.01539309541415,-0.005765930863266692,-37.54696066768047,88.3493768182127
11.04078619902074,-0.005628023589370278,-37.52980081755182,88.30355720015085
11.06623783977668,-0.005663052489725932,-37.51402172618577,88.32040996917108
11.09174815262401,-0.005615023257856529,-37.4921088035404,88.29423685749467
11.11731727281592,-0.005628254229697419,-37.47038454356516,88.30348233973658
11.14294533591729,-0.005681084600798288,-37.45069898302559,88.29929112020349
11.16863247780561,-0.00574960731121711,-37.43328362905308,88.2981108274507
11.19437883467153,-0.005790706980509373,-37.41151975273873,88.31872365257193
11.22018454301963,-0.005772704494831429,-37.40027891348512,88.28323424592837
11.24604973966927,-0.005858468474005443,-37.37656921494572,88.2656554190439
11.27197456175509,-0.005785992243687501,-37.35185270478311,88.29050635266833
11.29795914672798,-0.005724289671863173,-37.33493449402012,88.31376645791929
11.32400363235558,-0.005705334811287223,-37.31345201795837,88.2735855732561
11.35010815672314,-0.005808051874747897,-37.29387096316489,88.27741991690039
11.37627285823431,-0.005663873790411407,-37.27884110716131,88.27505382119037
11.40249787561167,-0.00571630355643908,-37.25275089848645,88.23832773779476
11.42878334789771,-0.005785228083378947,-37.23780199664079,88.26247920009982
11.45512941445536,-0.005691494457806989,-37.2180201832925,88.2522875784579
11.48153621496884,-0.005656961403995568,-37.19662235351744,88.25689100470838
11.50800388944436,-0.005742906436391982,-37.17830657879589,88.2431530207041
11.53453257821091,-0.005621324720701987,-37.15316224750242,88.24347540376934
11.56112242192098,-0.005679129963234684,-37.13255615067063,88.23167698830973
11.58777356155126,-0.005804961594754105,-37.11434664350613,88.22593039917095
11.61448613840344,-0.005704388873651746,-37.0906419213635,88.24313617632804
11.64126029410491,-0.005752110908201787,-37.07917968872544,88.2141435233524
11.66809617060963,-0.005784133635467252,-37.05798640578941,88.20872677102537
11.6949939101987,-0.005593235151823456,-37.03680575576127,88.2142420528004
11.7219536554813,-0.005606235932521312,-37.01648222797724,88.25144300298612
11.7489755493953,-0.005642680301248891,-36.99166640552862,88.20581571757978
11.77605973520807,-0.005752177164304483,-36.97846919357028,88.23001211414197
11.8032063565173,-0.005707159177911213,-36.95548982425285,88.17376156952049
11.83041555725164,-0.005706479847178502,-36.93930187395377,88.20556167963781
11.8576874816716,-0.005734914602492087,-36.92178858230766,88.21136760564275
11.88502227437019,-0.005686135539305135,-36.89774662154056,88.18207136462387
11.91242008027374,-0.005678895373506547,-36.88350893957151,88.17761677491454
11.93988104464273,-0.005681624559660216,-36.8576527554501,88.1681910123225
11.96740531307242,-0.005768381868232378,-36.83526087651345,88.20772976678974
11.99499303149381,-0.005788049567494956,-36.8198111950376,88.16447878876778
12.02264434617413,-0.005839561794292835,-36.79954850167981,88.13236411183317
12.05035940371796,-0.005742123671025126,-36.77560728442097,88.13462009129147
12.0781383510678,-0.005587023539275791,-36.75874187467801,88.15596985298323
12.10598133550483,-0.005873692066252986,-36.74082207590028,88.14036459157163
12.13388850464979,-0.005759277414779615,-36.72085875424079,88.14694181128529
12.16186000646368,-0.005786298943386046,-36.70300117020006,88.13713528475751
12.18989598924867,-0.005924542946069134,-36.67988535299551,88.15311631985274
12.21799660164871,-0.005808417525073781,-36.66192660550187,88.13726475058172
12.24616199265049,-0.005759483573516548,-36.64077619062307,88.14101058381618
12.27439231158408,-0.005814931757352543,-36.6212286464108,88.14609688815119
12.30268770812381,-0.005670482325347229,-36.60003184120487,88.11368153402799
12.3310483322891,-0.00593981743281727,-36.57622883948194,88.15355811810271
12.35947433444509,-0.005850741640861623,-36.55961478336065,88.10820669973081
12.38796586530369,-0.005862636771812941,-36.54215931619912,88.1322943233702
12.41652307592412,-0.005626089827457403,-36.52069965817343,88.11850215697014
12.44514611771384,-0.005664435400632805,-36.50243615168754,88.12560255929336
12.47383514242943,-0.005704963939669037,-36.48000676109592,88.10108108450666
12.50259030217719,-0.005731253043391058,-36.46063915449279,88.11991051467641
12.53141174941416,-0.005674997681638176,-36.439385125879,88.07244784907098
12.56029963694875,-0.005923715599991174,-36.41915959853279,88.08329362182056
12.58925411794166,-0.005842955482945975,-36.40142879769626,88.07250306223514
12.61827534590671,-0.00564597449575989,-36.38142536156244,88.11454414937484
12.64736347471152,-0.005659063521235159,-36.36449042894507,88.07103642233443
12.67651865857845,-0.00567377117852567,-36.34078260262076,88.09479358325916
12.70574105208542,-0.005598195068082608,-36.32261056295408,88.06036775170314
12.73503081016663,-0.005729685374877271,-36.30479938878919,88.11194333959848
12.76438808811343,-0.005468339119515559,-36.281845401382,88.07040222521707
12.79381304157525,-0.005524647389327617,-36.26605142845951,88.04519577265823
12.8233058265602,-0.0053595960164952,-36.24848658987192,88.0384396207715
12.85286659943615,-0.005619277642183563,-36.22749354694663,88.04303046502096
12.88249551693135,-0.005456272844580641,-36.20586062910385,88.0278327242851
12.91219273613534,-0.005418146059029761,-36.18274144299575,88.02904527170087
12.94195841449986,-0.00549505238524035,-36.16524341837071,88.0372501427033
12.97179270983955,-0.005424812291016773,-36.14760913396527,88.02861945666112
13.0016957803329,-0.005444068698331126,-36.12224156528405,88.05786129611514
13.031667784523,-0.005555819772150096,-36.10297922713663,88.02855486288048
13.0617088813184,-0.005762026989952041,-36.08012544551512,88.00829124792813
13.09181922999407,-0.005512662289558913,-36.0635016116704,88.02736199792358
13.12199899019202,-0.005537082036049886,-36.04444150816308,88.0060034344953
13.15224832192238,-0.005567426954040102,-36.02512151533592,87.99453998225877
13.18256738556407,-0.005659948946087135,-36.00867384380332,87.98027128798753
13.21295634186577,-0.005640412183226922,-35.98145421917543,87.99616841530185
13.24341535194664,-0.00553344597741289,-35.96678134973207,88.00218614182606
13.27394457729737,-0.005608036404400336,-35.94458140663786,87.98568932685097
13.30454417978093,-0.005654603485392887,-35.92529306228376,87.99903126813652
13.33521432163324,-0.005628958121960104,-35.90692658970407,87.97782293198397
13.36595516546443,-0.005650064907702124,-35.88385104819616,87.96488032073555
13.39676687425935,-0.005832257354559902,-35.86490371181947,87.98198665257465
13.42764961137864,-0.00577305651342677,-35.84365787004538,87.96360047202668
13.4586035405595,-0.005671980419448544,-35.82585078022974,87.96627244720123
13.48962882591653,-0.005584763798770869,-35.80612981556912,87.96928540787242
13.52072563194278,-0.005658068857538776,-35.78165537875465,87.94319096372982
13.55189412351035,-0.00560362307273308,-35.76897702321205,87.96877959699796
13.58313446587154,-0.005731616223809167,-35.74343545001203,87.94282667480952
13.61444682465951,-0.005703847981256186,-35.72638534055864,87.96474162742905
13.64583136588924,-0.005877075095095442,-35.70627999398614,87.93116220864157
13.6772882559585,-0.005796749116460605,-35.68509141353314,87.93865495558357
13.70881766164852,-0.005974599867783403,-35.66812575461189,87.92477345390597
13.74041975012515,-0.005944751207587021,-35.64766545734931,87.93531442812206
13.77209468893947,-0.005693455901541145,-35.62298772879694,87.91124676198142
13.80384264602887,-0.005688856678035835,-35.60576021450643,87.9295374601372
13.83566378971781,-0.005625541475080761,-35.58645001276294,87.89924872584371
13.86755828871887,-0.005756702235146922,-35.56415524832612,87.91222024006055
13.89952631213353,-0.005604720276825632,-35.54573493529278,87.90511931081004
13.93156802945304,-0.005594343370047811,-35.52993564442137,87.88484463298549
13.96368361055939,-0.005644386048469105,-35.50832657914037,87.88583031363983
13.99587322572618,-0.005722414206976986,-35.48773787298504,87.89492039990387
14.02813704561959,-0.005633723336518934,-35.46711544147912,87.87513011291804
14.06047524129913,-0.005657643386246824,-35.44884822873235,87.86686321565483
14.09288798421875,-0.005507749149867395,-35.42751864307989,87.8865511797671
14.12537544622755,-0.005538393401303114,-35.40917158558799,87.86721280348395
14.15793779957081,-0.005605701945697212,-35.38573999027749,87.83830849896191
14.19057521689093,-0.005773739311674191,-35.36687341988423,87.87520068566278
14.22328787122818,-0.005733427118024011,-35.34503256882403,87.85079519730469
14.25607593602188,-0.005848940699221832,-35.32608598342913,87.85932773797526
14.28893958511104,-0.005557103841444095,-35.30613353687175,87.8228453000593
14.32187899273542,-0.005588577092937231,-35.28400746461907,87.84968697320585
14.35489433353656,-0.005674174256962237,-35.26491394377791,87.84186294441353
14.38798578255844,-0.005611681692130748,-35.2478085736913,87.82265076719459
14.42115351524871,-0.005706686177938454,-35.22528487035829,87.80892632857083
14.45439770745928,-0.005631232704690916,-35.2065084675682,87.80884981648821
14.4877185354476,-0.005744586761349522,-35.18445412691047,87.79674924842547
14.52111617587742,-0.005608635313490775,-35.16077975518188,87.79480446013559
14.55459080581967,-0.005733818983581604,-35.14904924348723,87.81372461083626
14.5881426027535,-0.005789345894319235,-35.12457360458097,87.7812477803169
14.62177174456718,-0.005906479944114231,-35.10583437528823,87.77376560106899
14.65547840955913,-0.005694779886136184,-35.08544279047967,87.78608535511229
14.68926277643866,-0.005698709473874986,-35.06874673603917,87.78299614210181
14.72312502432719,-0.005753776710999876,-35.04719589571901,87.80386895372951
14.75706533275896,-0.005796737349304948,-35.02419771754789,87.76732958746113
14.79108388168207,-0.005694923780925156,-35.00399853680258,87.77206091292763
14.82518085145954,-0.005776119188333232,-34.9873711602289,87.7409476359957
14.85935642287006,-0.005589682840177215,-34.96341235377818,87.74849937442875
14.89361077710915,-0.005787101821956867,-34.94507486865616,87.74141228484291
14.92794409578994,-0.005756002496051681,-34.92892416144952,87.76334129100142
14.96235656094433,-0.005617281672990519,-34.9072787239659,87.73034731787965
14.99684835502374,-0.005614192816526192,-34.88674129402383,87.73930734321343
15.03141966090021,-0.005824815136717475,-34.86633220211274,87.72933546334878
15.06607066186742,-0.005703291029120062,-34.84777285846965,87.72746003936507
15.10080154164149,-0.005595596968279852,-34.8261309692008,87.72409192060698
15.13561248436207,-0.005554515698831128,-34.80768583971716,87.71454006386902
15.17050367459337,-0.00552185641809073,-34.78916554900219,87.72182595515527
15.20547529732497,-0.005469533626406618,-34.76328265346864,87.7201525688905
15.24052753797291,-0.00564314781513955,-34.7473726971239,87.68713816471889
15.2756605823807,-0.005556363521675143,-34.72729411266594,87.6974188297814
15.31087461682032,-0.005487435412157439,-34.70914332829986,87.70574740482286
15.34616982799294,-0.005559490112088248,-34.68715759217612,87.67935607610676
15.38154640303036,-0.005640357497683984,-34.6657442451212,87.68510994069077
15.41700452949559,-0.005625984919980471,-34.64692459590039,87.66610419289327
15.45254439538414,-0.005708810633884934,-34.62446280787143,87.65251562225785
15.48816618912483,-0.005641978625988977,-34.60778209869404,87.67569411388165
15.52387009958082,-0.005587040365596218,-34.58830189005111,87.65483094506142
15.55965631605075,-0.005619574470903813,-34.56627020265753,87.66287125977578
15.59552502826952,-0.005478328409055534,-34.54573407960783,87.6635473349794
15.63147642640954,-0.005536545372968667,-34.52804579408858,87.65343129270521
15.6675107010815,-0.00553122159138868,-34.50788222968845,87.64626857627506
15.70362804333552,-0.005456113177210411,-34.48929859854222,87.63441743362077
15.7398286446622,-0.005634678751992417,-34.4666523031803,87.64402559908841
15.77611269699347,-0.005633598061864629,-34.44725395249139,87.63577245297446
15.81248039270383,-0.005533165096290682,-34.42306155539963,87.63459129872435
15.84893192461114,-0.005423180460927165,-34.40778061374981,87.6274320693569
15.88546748597781,-0.005612256297736489,-34.3903050967925,87.60558657595662
15.9220872705117,-0.005710790512419464,-34.36629014671298,87.60092925830166
15.95879147236731,-0.005593329838385837,-34.34788918457353,87.60126484960209
15.99558028614668,-0.005607368026172891,-34.328593382229,87.58222723814856
16.03245390690042,-0.005541066666596221,-34.30641027485579,87.57853422710642
16.06941253012879,-0.005642673761122685,-34.28408588044692,87.58264615238491
16.1064563517827,-0.005631538128411984,-34.26383341935075,87.56389108196799
16.14358556826487,-0.005660831978981234,-34.24806306922678,87.56722813756794
16.18080037643064,-0.005516865162592367,-34.22567236185434,87.58920604474909
16.2181009735893,-0.0057708421394552,-34.2061934355503,87.55738435288586
16.25548755750485,-0.005779758470468141,-34.18666248716183,87.54515751254317
16.29296032639722,-0.005712467753471178,-34.1659564108419,87.57049802732715
16.33051947894334,-0.005784388468679368,-34.1446502654957,87.53640572892657
16.36816521427807,-0.005757353687248956,-34.12656205936875,87.54095712726867
16.40589773199539,-0.005828204129149413,-34.1041220738811,87.54643146152566
16.44371723214933,-0.0055871644087522,-34.08298098480427,87.52682009308018
16.48162391525507,-0.005545406941475814,-34.06627961571893,87.52342753488304
16.51961798229015,-0.005521370948200847,-34.04435976495996,87.53718323138207
16.55769963469526,-0.005789406563790582,-34.02129673615725,87.52457987460203
16.59586907437563,-0.005790475702380782,-34.00432967036137,87.50449452855196
16.6341265037017,-0.005855325068914078,-33.98354251287006,87.50894887593896
16.67247212551061,-0.005820885985869878,-33.96575033425867,87.50270525401262
16.71090614310707,-0.005827068399671055,-33.9435280738867,87.49190426897994
16.74942876026438,-0.00594370536930811,-33.92355132699595,87.48839105970416
16.78804018122563,-0.005909236440934844,-33.90476115649049,87.46775620680647
16.82674061070467,-0.005883011682504539,-33.88583710309665,87.47217881302529
16.86553025388742,-0.005760482531431111,-33.86416517006028,87.48867546679091
16.90440931643263,-0.005794125752081946,-33.84525639292884,87.4698026931932
16.94337800447329,-0.005626870688495949,-33.82309156989877,87.47321714752073
16.98243652461746,-0.005721554233390135,-33.80486587943489,87.44782004567244
17.0215850839495,-0.005661834934641246,-33.78199835082555,87.45145001338365
17.06082389003124,-0.005729418725587471,-33.76271738383857,87.43790841776607
17.10015315090286,-0.005619760558697651,-33.74511751266588,87.43928672172164
17.13957307508425,-0.00569157881426593,-33.72141642995462,87.4353889528485
17.17908387157589,-0.005629396936347058,-33.70456870752324,87.43198081205119
17.21868574986006,-0.005699748720531233,-33.68407213642446,87.41234839646275
17.25837891990204,-0.00577795949168076,-33.66300890691774,87.42063516823444
17.298163592151,-0.005811006417280255,-33.64501874191148,87.4000896292775
17.33803997754137,-0.005909043507866903,-33.62880096763298,87.40159366522104
17.37800828749376,-0.00575882321393933,-33.6004962189265,87.39205358065068
17.41806873391613,-0.005760086151311629,-33.58014395033137,87.38247727270235
17.45822152920504,-0.005640456910352491,-33.56116995675767,87.38250152795349
17.49846688624658,-0.00561370285136391,-33.54113703131374,87.37358230486294
17.5388050184176,-0.005652171891061474,-33.52107266606003,87.37392474412366
17.57923613958693,-0.005718778251097891,-33.50057984071883,87.34485118046831
17.61976046411631,-0.005553071289737269,-33.48102376811565,87.34179240195034
17.66037820686164,-0.005485699191652488,-33.46409881632491,87.35287271473172
17.70108958317422,-0.005581845695013405,-33.44074723690801,87.34340592594226
17.74189480890164,-0.005612056374327182,-33.42256757816445,87.35288524967676
17.78279410038923,-0.005540571071296564,-33.39784695358873,87.3543729309624
