#Digilent WaveForms Network Analyzer - Bode
#Device Name: Discovery2
#Serial Number: DEMO
#Date Time: 2021-10-13 00:14:33.818
#Start: 100 Hz
#Stop: 1e+06 Hz
#Steps: 5001
#Wavegen: Wavegen C1
#Amplification: 1 X
#Settle: 10 ms
#MinPeriods: 16 
#Channel: Channel 1
#Range: 5.49264 V
#Offset: 0.000293069 V
#Relative: no
#Channel: Channel 2
#Range: 5.52637 V
#Offset: 0.000302154 V
#Relative: yes

#Frequency (Hz),Channel 1 Magnitude (X),Channel 2 Magnitude (X),Channel 2 Phase (deg)
100,0.9989735208312915,0.9984433440532101,-0.7791708606691575
100.1843765724026,0.9989705120981893,0.9984532136557812,-0.7802238443917503
100.3690930920097,0.9989832815109985,0.9984464208328242,-0.7821076518072363
100.5541501856044,0.9989698598161432,0.9984477086297928,-0.7833974998537613
100.7395484811251,0.9989712105439811,0.9984466854506132,-0.7845087702235227
100.9252886076684,0.9989556117102296,0.9984602513243684,-0.7858771415798522
101.1113711954907,0.9989579346133892,0.9984432439440458,-0.7876783113216376
101.2977968760102,0.9989582440728588,0.998436421549858,-0.7892817079142777
101.4845662818096,0.9989547201968116,0.9984533928268461,-0.7907899042783406
101.6716800466376,0.9989784918054252,0.9984424422373035,-0.7915358563763607
101.8591388054117,0.9989649381267517,0.9984460455698582,-0.7934053763476409
102.0469431942199,0.9989721515642629,0.9984604555391763,-0.794818381173376
102.235093850323,0.9989495669893834,0.998457587727294,-0.796552573024617
102.4235914121569,0.9989652720126025,0.9984584320168924,-0.7977051890951284
102.6124365193342,0.9989598954706305,0.9984552723402649,-0.7995881338837364
102.8016298126473,0.9989636013423837,0.9984525283823904,-0.8008710248566722
102.9911719340699,0.998979597609217,0.998456053309789,-0.802422508327966
103.1810635267592,0.9989719721458247,0.9984618155684751,-0.8039559189539155
103.3713052350584,0.998948809261911,0.9984668751004835,-0.8054195263360295
103.5618977044986,0.9989736589262701,0.9984604671806949,-0.8071499977969383
103.7528415818013,0.9989741886473725,0.9984461451843163,-0.8078993070661827
103.9441375148801,0.9989849758661965,0.9984463431285719,-0.8097513002473411
104.1357861528434,0.9989922495000452,0.9984386331115259,-0.8111367099250704
104.3277881459966,0.9989910215193996,0.9984481630796,-0.8128049659146743
104.5201441458436,0.9989891863315912,0.9984396661832005,-0.8145291582266353
104.71285480509,0.9989849588866399,0.998446917237063,-0.8158292633899764
104.9059207776445,0.9989974378416371,0.9984409025482207,-0.8172491474856857
105.0993427186216,0.9989964622321766,0.9984495967171195,-0.819099352799834
105.293121284344,0.9990005083383118,0.9984620295451067,-0.8202459815668958
105.4872571323437,0.9989837963506496,0.9984718001073375,-0.8217258142767505
105.6817509213658,0.9990002938090774,0.9984682505642485,-0.823518743972107
105.8766033113697,0.999004108793741,0.9984641726282897,-0.8247067091760292
106.0718149635315,0.9990046349528976,0.9984659909276969,-0.8263117751746882
106.2673865402465,0.998991331234512,0.9984573874886873,-0.828096082765869
106.4633187051312,0.9989877793744979,0.9984702931573182,-0.8295716886476872
106.6596121230258,0.9989826974784028,0.9984765066480985,-0.8307329243533111
106.8562674599961,0.9989875523565608,0.9984777152129908,-0.8324445934216212
107.0532853833362,0.9989623362572694,0.9984772564575782,-0.833813345909421
107.2506665615704,0.9989825518634905,0.9984848428016453,-0.83560634428081
107.4484116644556,0.9989989484087506,0.9984645653186504,-0.8369786951934002
107.6465213629835,0.9990018365374029,0.9984423938050718,-0.8386682931853926
107.8449963293832,0.9989827617951808,0.998455522437553,-0.8401516056651775
108.043837237123,0.9989841455429784,0.9984756683372459,-0.841687095391082
108.2430447609131,0.9989756745977341,0.9984623410651968,-0.8434962543917861
108.4426195767075,0.9989892354584722,0.9984644322683679,-0.8445190636819184
108.6425623617066,0.9989960450719944,0.9984587020617306,-0.846841354255805
108.8428737943594,0.9990052786970303,0.9984426020145475,-0.847569707321379
109.0435545543659,0.998982510143812,0.9984728118017603,-0.8493098397269595
109.2446053226793,0.9989945954581823,0.9984656067515999,-0.8508220029826112
109.446026781508,0.9990080414804531,0.9984759493138324,-0.85276156973691
109.6478196143185,0.9989952424244869,0.9984682114504195,-0.8542545029990162
109.8499845058375,0.9990086918369101,0.9984655883092937,-0.8555254886929206
110.0525221420542,0.9990063453759159,0.9984580243771173,-0.8570746999595109
110.2554332102224,0.9989928621857416,0.9984775050646796,-0.8588396583908526
110.458718398863,0.9990091443282513,0.9984700119548784,-0.8604865241221369
110.6623783977666,0.9990003200715606,0.9984672022903262,-0.8620588237187633
110.8664138979956,0.9989972526242411,0.9984791873227853,-0.8631909617158762
111.0708255918864,0.9989988438160952,0.9984815494962406,-0.8649600724703607
111.2756141730521,0.9990111439715756,0.9984516861040585,-0.8668706381489226
111.4807803363843,0.9990138476465834,0.9984650446485196,-0.8682436111893104
111.6863247780561,0.999013521697333,0.9984789662702375,-0.8697809575489777
111.8922481955243,0.9990010679841081,0.9984726029647885,-0.8717437551177873
112.0985512875314,0.9989986980454922,0.998480029218306,-0.8733478173200993
112.3052347541083,0.9990185292535561,0.998468263449618,-0.8747410496708827
112.5122992965767,0.999012106077618,0.9984777555097305,-0.8764237165252643
112.719745617551,0.9989946084082899,0.9984813808679488,-0.8779006038813932
112.9275744209416,0.9990146076961832,0.9984897563310585,-0.8797209734173569
113.1357864119563,0.9990085584870094,0.9984768571274563,-0.8812854547461129
113.3443822971034,0.9990079599493272,0.9984844186546957,-0.8828724262323611
113.5533627841938,0.9990010154447658,0.9985124248910462,-0.8846252403200114
113.7627285823431,0.9990146489664363,0.9985055879164692,-0.8858338922252276
113.9724804019749,0.9990316166843318,0.9984934017631524,-0.8879675638999981
114.1826189548222,0.9990342006603198,0.9985043057154732,-0.8894175941044404
114.3931449539306,0.9990271537657085,0.998501850980731,-0.8906856715552237
114.6040591136603,0.9990431445890042,0.9985018439860119,-0.8927766126051804
114.8153621496883,0.9990486009038879,0.9984976458828151,-0.8939913418232817
115.0270547790115,0.9990371134327987,0.9984914630529781,-0.8957107587323495
115.2391377199487,0.9990268148302344,0.9984951638201695,-0.8977322985955443
115.451611692143,0.9990226492893163,0.9984863492117811,-0.8993698439809812
115.6644774165646,0.9990271238763878,0.9984936581727649,-0.9011904114926349
115.8777356155126,0.9990355186715381,0.9984913858488297,-0.9030168130709335
116.0913870126182,0.9990408867866993,0.9984867942476132,-0.9040410635660215
116.3054323328467,0.9990297415673368,0.9985030271012446,-0.9059960178421747
116.5198723025,0.9990418587506611,0.9984908039632361,-0.9076230722544437
116.7347076492193,0.999019070238506,0.9984875040774077,-0.9090972007450727
116.9499391019871,0.9990091445469768,0.9984871163663285,-0.9109146554695762
117.1655673911303,0.9990119806629736,0.9984832681295784,-0.9124458828617577
117.3815932483221,0.999017266043067,0.9984793501136797,-0.9140149632558032
117.5980174065848,0.999025435228916,0.9984723577098216,-0.9163775302886016
117.8148406002926,0.9990079234419674,0.9984737364935869,-0.9181392865018957
118.032063565173,0.9990107518364255,0.9984778522498714,-0.9193630293574433
118.2496870383105,0.9989924463199238,0.9984681539273121,-0.9211485290227539
118.4677117581485,0.9990276074899718,0.998467465819963,-0.9227109064184775
118.6861384644919,0.9990084136863479,0.9984796920612418,-0.9244467094400163
118.9049678985099,0.9990012518167279,0.9984996751930424,-0.9261894419537914
119.1242008027375,0.9990043295621481,0.9984912554079495,-0.9279440385090598
119.3438379210796,0.9989980634975655,0.9984956218294798,-0.9294423806887562
119.5638799988121,0.9989870389746688,0.9985002799206073,-0.9311438857241903
119.7843277825855,0.9989881410282575,0.9984926704024176,-0.9328168919490023
120.0051820204266,0.9989911162490897,0.9984880708743155,-0.9348513611371392
120.2264434617413,0.9989869155055718,0.9985057537887706,-0.9364904887510157
120.4481128573176,0.9989980934229429,0.9985094462350652,-0.9382599501312529
120.6701909593275,0.9989905497604973,0.9984819809880704,-0.9397029743149894
120.89267852133,0.9989864487022799,0.9984819196956242,-0.9412836499954871
121.1155762982734,0.9990026600533085,0.9984722252702241,-0.9430149410466868
121.3388850464977,0.9989999262431919,0.9984919468307701,-0.9448435954278963
121.562605523738,0.9989841554129855,0.9985034214034489,-0.9470376645232491
121.7867384891259,0.9990010031780209,0.9984978832800436,-0.9485898514195364
122.0112847031931,0.9990107293390377,0.998490273632612,-0.9499334100446337
122.2362449278733,0.9990259149993925,0.9984902976827397,-0.9519739579452342
122.4616199265049,0.999022597156084,0.9984935849679345,-0.9538435001445184
122.6874104638341,0.9990197346407499,0.9985010574318305,-0.9552915993973727
122.9136173060167,0.9990206682390387,0.9984940450034563,-0.9574719895712143
123.1402412206216,0.9990273462028851,0.9984865614490112,-0.9589263402512573
123.3672829766326,0.9990006772062976,0.9984958828548255,-0.9610580723926347
123.5947433444511,0.9990299414362822,0.9984791046813679,-0.9625554143056861
123.8226230958993,0.9990135289439941,0.9984920859499923,-0.9643493168051496
124.0509230042225,0.9989934130660629,0.9984936359935197,-0.9660874534092393
124.2796438440914,0.9990049035588854,0.9984945122438958,-0.9680189205215857
124.5087863916054,0.9990114785795157,0.9984772860875951,-0.9695987573087393
124.7383514242943,0.999003344511415,0.9984842483719062,-0.9717045779983753
124.9683397211219,0.9990071834887292,0.9984849866463222,-0.9731876792455514
125.1987520624881,0.9990153732742313,0.9984595898295213,-0.9748940400657684
125.4295892302318,0.9990164104892585,0.9984629237199977,-0.9766910943839573
125.6608520076332,0.9990159172026978,0.9984671319830181,-0.9787175000248081
125.8925411794167,0.9990232251289795,0.9984734193180707,-0.9803717446718252
126.1246575317538,0.9990092434675326,0.9984692224765003,-0.9825904924680179
126.3572018522654,0.9990104256658097,0.9984805234105669,-0.9839992370120042
126.5901749300244,0.9989972614404753,0.9984748282756969,-0.9857225839155909
126.8235775555589,0.9990231593051975,0.9984706560501982,-0.9874617164436261
127.0574105208542,0.9990174085361971,0.9984786585918951,-0.9891239941294975
127.291674619356,0.9990427631131913,0.9984690223188302,-0.9912730791645989
127.526370645973,0.999022590965977,0.9984808838627625,-0.9930194470840231
127.7614993970795,0.9990161594705562,0.9984769028348114,-0.9948609885435286
127.9970616705181,0.9990180748922748,0.9984716603402807,-0.9967757662431775
128.2330582656022,0.9990283299993077,0.998482227509547,-0.9987834636525079
128.4694899831193,0.9990511362196359,0.9984766185523813,-1.000160118103055
128.7063576253332,0.99904507309643,0.9984767570331268,-1.002749019905416
128.943661995987,0.9990416249315965,0.9984638767824068,-1.003864689186642
129.1814039003057,0.9990420104693009,0.9984646550237447,-1.00600246880566
129.4195841449986,0.9990210631296976,0.9984734908036234,-1.007565210630673
129.6582035382629,0.999024415652975,0.9984835047643699,-1.010338422010571
129.8972628897855,0.9990193901744288,0.9984792419105452,-1.011555119926125
130.1367630107464,0.9990085525383906,0.9985001045845273,-1.013473835424615
130.3767047138214,0.9990070711207444,0.9984968651299945,-1.015644706435078
130.6170888131842,0.9990105578130108,0.9984908806616619,-1.017143976955808
130.85791612451,0.9990203540284337,0.9984974735334807,-1.019604708687834
131.0991874649777,0.9990121247753013,0.9984999653813545,-1.021099942779615
131.3409036532733,0.9990219026195464,0.9984957711870256,-1.02277536630301
131.5830655095919,0.9990301506942162,0.9984891332036829,-1.024609878566908
131.8256738556407,0.9990250402414924,0.9985081094988046,-1.026855461352277
132.0687295146424,0.9990089917300458,0.9985100319573975,-1.028496572868963
132.3122333113371,0.9990065470518118,0.9984968758597311,-1.030206064580452
132.5561860719858,0.9990116978284875,0.998518185215677,-1.032333934867792
132.8005886243731,0.9990235157828856,0.9985024426300581,-1.033979898055897
133.0454417978092,0.9990238651858183,0.9984915109523103,-1.035665190280725
133.2907464231338,0.9990285967024406,0.9984953581916916,-1.038007657595576
133.5365033327186,0.9990332223209929,0.9984707599253363,-1.040012249791328
133.7827133604697,0.9990198294633332,0.9984807134133685,-1.041860388557159
134.029377341831,0.9990166851518708,0.9984888959229328,-1.043601110008684
134.2764961137864,0.9990099681765262,0.9984963898637816,-1.046913107166068
134.5240705148633,0.9990124719951894,0.9985059803573619,-1.04616773775141
134.772101385135,0.9990265176656333,0.9984784421891508,-1.048789009008094
135.0205895662239,0.9990213886196535,0.9984760098821935,-1.051347186873804
135.269535901304,0.9990386208485157,0.9984695890165173,-1.053899886108456
135.5189412351036,0.9990520057096346,0.998461826691597,-1.055316842614448
135.7688064139092,0.999026709338582,0.9984692136496928,-1.057697050212974
136.0191322855671,0.9990469180811512,0.9984636097882399,-1.059059998318074
136.2699196994869,0.9990417625860161,0.9984561550937213,-1.061094807081188
136.5211695066447,0.9990396649620555,0.9984815036605349,-1.063480566841324
136.7728825595849,0.9990459960766428,0.9984835319601834,-1.065215981345662
137.0250597124245,0.9990388033804625,0.9984855023263842,-1.067278201710395
137.2777018208549,0.9990396608260468,0.9984698426160632,-1.069069746039764
137.5308097421452,0.9990436318126525,0.9984766115506675,-1.070560174694249
137.7843843351453,0.9990366589949428,0.9984754184358076,-1.072719433837702
138.0384264602885,0.9990234693792956,0.9984846654181523,-1.074620995729234
138.2929369795945,0.9990251088515881,0.9984966831284897,-1.077312570715701
138.5479167566723,0.9990174375803876,0.9985073481771083,-1.078899999175695
138.8033666567234,0.9990116594756188,0.9984909976684911,-1.081070916413263
139.0592875465446,0.9990512686467309,0.9984856870332699,-1.083075257356105
139.3156802945304,0.9990523387791823,0.9984967825795391,-1.084924829574315
139.5725457706768,0.9990464528312545,0.9984862151708858,-1.086970398063653
139.8298848465837,0.9990522279054993,0.9984713134550873,-1.089023685625601
140.0876983954583,0.9990429180621945,0.998473399914684,-1.090753985368383
140.3459872921175,0.9990621022378793,0.9984518818610419,-1.09279341113805
140.6047524129914,0.9990548483323426,0.9984703899858194,-1.095100502374281
140.8639946361256,0.9990305775537346,0.9984964189786026,-1.096910098309406
141.1237148411851,0.9990515110959478,0.9984746852013712,-1.099407872936818
141.3839139094564,0.9990427973451407,0.998464585937222,-1.102126684604955
141.6445927238514,0.9990386608602663,0.9984852370472642,-1.101035831674026
141.9057521689093,0.9990503004866993,0.9984557573065889,-1.103985790882877
142.1673931308004,0.9990267209091173,0.9984677948929779,-1.105799739237526
142.429516497329,0.9990382954553452,0.9984752664817602,-1.109497796024351
142.6921231579364,0.9990327590033694,0.9984504513833626,-1.111146016452813
142.9552140037034,0.999054622299953,0.9984373259992606,-1.112597769309792
143.2187899273544,0.9990329749926922,0.9984622501237682,-1.115524072962618
143.4828518232589,0.9990256880634607,0.9984577935061837,-1.117471816491224
143.7474005874361,0.9990199410718473,0.9984493756988676,-1.119542873056727
144.012437117557,0.9990223543476743,0.9984539799440921,-1.121165702938626
144.2779623129479,0.9990199662398414,0.9984417661261522,-1.123329146675639
144.5439770745928,0.9990452846225993,0.9984368265464908,-1.125429504865403
144.8104823051373,0.9990476102436044,0.9984298836553239,-1.12746413522467
145.0774789088911,0.9990366905761097,0.998423589804932,-1.129997328769964
145.3449677918314,0.9990393392147034,0.9984331791515851,-1.131719752491721
145.6129498616056,0.999048343037104,0.9984407140557293,-1.133756333714713
145.8814260275349,0.9990466798880746,0.9984518719698895,-1.136122220734746
146.1503972006165,0.9990299005721587,0.9984580871767936,-1.137494142366743
146.4198642935277,0.9990453972197895,0.9984646341532789,-1.139931051059512
146.6898282206286,0.9990693727333728,0.9984425052986381,-1.142076081772258
146.960289897965,0.9990642632023929,0.9984527271677029,-1.144089305083793
147.2312502432719,0.9990854788833461,0.9984336482433096,-1.146307378776806
147.5027101759759,0.9990799297856563,0.9984295693310793,-1.148080934879961
147.7746706171993,0.9990647401781402,0.9984562337245695,-1.150695801905201
148.0471324897625,0.9990553946137632,0.9984560542719297,-1.152070150120666
148.3200967181874,0.9990533694584369,0.998444367322706,-1.155155150004288
148.5935642287007,0.9990361475056539,0.9984444726029172,-1.157331134772188
148.8675359492364,0.9990476552956201,0.9984424225333716,-1.15869247163717
149.1420128094398,0.9990691724906278,0.9984415821507789,-1.161211482741519
149.4169957406701,0.9990553178023388,0.998438105490955,-1.162599907940758
149.6924856760036,0.99904776396332,0.9984691509740127,-1.166433735955769
149.9684835502374,0.9990393178134749,0.9984487779636442,-1.165022678353254
150.2449902998914,0.9990521794879166,0.9984216513936039,-1.166315942555434
150.522006863213,0.9990292346158617,0.9984721945383744,-1.171665467542548
150.7995341801789,0.9990434624026353,0.9984353472558033,-1.173225735282896
151.0775731924994,0.9990369639382184,0.9984514236451939,-1.17614882843352
151.3561248436209,0.9990428545409136,0.9984463762323835,-1.179112199164304
151.6351900787289,0.9990348641129113,0.9984468964383274,-1.180251166413748
151.9147698447522,0.999032665212785,0.9984648610779532,-1.182718301212965
152.1948650903652,0.9990099646583411,0.9984595076559869,-1.18518033951563
152.4754767659915,0.9990207591465067,0.998460849652569,-1.186913250037958
152.7566058238073,0.9990280981522979,0.9984558380094203,-1.189644623870419
153.0382532177438,0.9990460301711618,0.9984474254044674,-1.191208317418522
153.3204199034914,0.9990469921874638,0.9984558779173044,-1.193803439166711
153.6031068385027,0.9990546399064126,0.9984502486334088,-1.195793494922068
153.8863149819954,0.999067170093549,0.9984403402654931,-1.198530660847091
154.170045294956,0.9990615618075187,0.9984366297095488,-1.199958929329926
154.4542987401423,0.9990544910071476,0.998431632035748,-1.202785187999349
154.7390762820878,0.999054370534262,0.9984396030338627,-1.204818601954807
155.0243788871042,0.9990465468222055,0.9984390422333607,-1.207535975205767
155.3102075232846,0.9990479514573378,0.9984249571709621,-1.209619772838896
155.5965631605075,0.9990362449610336,0.9984276149349196,-1.21154970484285
155.8834467704391,0.9990357616648868,0.998450825942932,-1.21365032569146
156.1708593265374,0.9990459160700954,0.9984518433982887,-1.215567535240317
156.4588018040553,0.9990393551810263,0.9984399008247413,-1.218268953808347
156.7472751800438,0.9990538639516133,0.9984305452030728,-1.220289586449042
157.0362804333553,0.9990509260676749,0.9984473622511841,-1.223451172487473
157.3258185446468,0.9990384754162646,0.9984444018715899,-1.22500514890582
157.6158904963837,0.9990586904061475,0.9984405065895277,-1.227282632305566
157.9064972728428,0.9990449346388731,0.9984343191760497,-1.229768977910905
158.1976398601154,0.9990512482020295,0.9984351383540104,-1.232075404390538
158.4893192461114,0.9990614874561998,0.9984385582613152,-1.233700912839658
158.7815364205616,0.9990690991563842,0.998432412857259,-1.23749195966553
159.0742923750219,0.9990483466105176,0.9984657549065941,-1.23967726141375
159.3675881028767,0.9990616111923115,0.9984540935271422,-1.242283197062889
159.6614245993414,0.999070056902565,0.9984019225972346,-1.241021879974713
159.955802861467,0.9990794188617407,0.9984109407703375,-1.246657046663586
